Time Stamp,ID,Extended,Dir,Bus,LEN,D1,D2,D3,D4,D5,D6,D7,D8
528850,00000422,false,Rx,0,8,00,00,00,00,00,00,00,67,
529087,000003F3,false,Rx,0,8,5C,66,05,87,FF,7F,00,80,
529767,000003F3,false,Rx,0,8,5C,66,06,88,FF,7F,00,80,
530004,000002A0,false,Rx,0,8,00,6C,8E,00,80,FF,7F,21,
531595,000002A0,false,Rx,0,8,00,6D,8F,00,80,FF,7F,21,
533425,000002A0,false,Rx,0,8,00,6E,90,00,80,FF,7F,21,
535243,00000299,false,Rx,0,8,00,00,00,00,00,00,18,74,
537071,000002A0,false,Rx,0,8,00,60,82,00,80,FF,7F,21,
548693,00000312,false,Rx,0,8,00,10,8F,03,00,FF,00,04,
548937,000003F3,false,Rx,0,8,5C,66,07,89,FF,7F,00,80,
549848,000003F3,false,Rx,0,8,5C,66,08,8A,FF,7F,00,80,
550095,000002A0,false,Rx,0,8,00,61,83,00,80,FF,7F,21,
551685,000002A0,false,Rx,0,8,00,62,84,00,80,FF,7F,21,
553505,000002A0,false,Rx,0,8,00,63,85,00,80,FF,7F,21,
555322,000002A0,false,Rx,0,8,00,64,86,00,80,FF,7F,21,
557142,000002A0,false,Rx,0,8,00,65,87,00,80,FF,7F,21,
558650,00000422,false,Rx,0,8,00,00,00,00,00,00,00,67,
568649,00000312,false,Rx,0,8,00,10,8F,04,00,FF,00,05,
568893,000003F3,false,Rx,0,8,5C,66,09,8B,FF,7F,00,80,
569805,000003F3,false,Rx,0,8,5C,66,0A,8C,FF,7F,00,80,
570042,000002A0,false,Rx,0,8,00,66,88,00,80,FF,7F,21,
571641,000002A0,false,Rx,0,8,00,67,89,00,80,FF,7F,21,
573461,000002A0,false,Rx,0,8,00,68,8A,00,80,FF,7F,21,
575279,000002A0,false,Rx,0,8,00,69,8B,00,80,FF,7F,21,
577108,000002A0,false,Rx,0,8,00,6A,8C,00,80,FF,7F,21,
588649,00000312,false,Rx,0,8,00,10,8F,05,00,FF,00,06,
588893,00000422,false,Rx,0,8,00,00,00,00,00,00,00,67,
589129,000003F3,false,Rx,0,8,5C,66,0B,8D,FF,7F,00,80,
589809,000003F3,false,Rx,0,8,5C,66,0C,8E,FF,7F,00,80,
590046,000002A0,false,Rx,0,8,00,6B,8D,00,80,FF,7F,21,
591638,000002A0,false,Rx,0,8,00,6C,8E,00,80,FF,7F,21,
593456,000002A0,false,Rx,0,8,00,6D,8F,00,80,FF,7F,21,
595275,000002A0,false,Rx,0,8,00,6E,90,00,80,FF,7F,21,
597105,00000299,false,Rx,0,8,00,00,00,00,00,00,18,74,
608649,00000312,false,Rx,0,8,00,10,8F,06,00,FF,00,07,
608903,000003F3,false,Rx,0,8,5C,66,0D,8F,FF,7F,00,80,
609804,000003F3,false,Rx,0,8,5C,66,0E,90,FF,7F,00,80,
610051,000002A0,false,Rx,0,8,00,60,82,00,80,FF,7F,21,
611642,000002A0,false,Rx,0,8,00,61,83,00,80,FF,7F,21,
613461,000002A0,false,Rx,0,8,00,62,84,00,80,FF,7F,21,
615288,000002A0,false,Rx,0,8,00,63,85,00,80,FF,7F,21,
617108,000002A0,false,Rx,0,8,00,64,86,00,80,FF,7F,21,
618677,00000422,false,Rx,0,8,00,00,00,00,00,00,00,67,
628646,00000312,false,Rx,0,8,00,10,8F,07,00,FF,00,08,
628899,000003F3,false,Rx,0,8,5C,66,00,82,FF,7F,00,80,
629811,000003F3,false,Rx,0,8,5C,66,01,83,FF,7F,00,80,
630050,000002A0,false,Rx,0,8,00,65,87,00,80,FF,7F,21,
631639,000002A0,false,Rx,0,8,00,66,88,00,80,FF,7F,21,
633458,000002A0,false,Rx,0,8,00,67,89,00,80,FF,7F,21,
635276,000002A0,false,Rx,0,8,00,68,8A,00,80,FF,7F,21,
637105,000002A0,false,Rx,0,8,00,69,8B,00,80,FF,7F,21,
648686,00000312,false,Rx,0,8,00,10,8F,08,00,FF,00,09,
648929,00000422,false,Rx,0,8,00,00,00,00,00,00,00,67,
649841,000003F3,false,Rx,0,8,5C,66,04,86,FF,7F,00,80,
650079,000002A0,false,Rx,0,8,00,6A,8C,00,80,FF,7F,21,
651669,000002A0,false,Rx,0,8,00,6B,8D,00,80,FF,7F,21,
653488,000002A0,false,Rx,0,8,00,6C,8E,00,80,FF,7F,21,
655316,000002A0,false,Rx,0,8,00,6D,8F,00,80,FF,7F,21,
657135,000002A0,false,Rx,0,8,00,6E,90,00,80,FF,7F,21,
668636,00000312,false,Rx,0,8,00,10,8F,09,00,FF,00,0A,
668889,000003F3,false,Rx,0,8,5C,66,05,87,FF,7F,00,80,
669801,000003F3,false,Rx,0,8,5C,66,06,88,FF,7F,00,80,
670040,00000299,false,Rx,0,8,00,00,00,00,00,00,18,74,
671629,000002A0,false,Rx,0,8,00,60,82,00,80,FF,7F,21,
673458,000002A0,false,Rx,0,8,00,61,83,00,80,FF,7F,21,
675276,000002A0,false,Rx,0,8,00,62,84,00,80,FF,7F,21,
677095,000002A0,false,Rx,0,8,00,63,85,00,80,FF,7F,21,
678624,00000422,false,Rx,0,8,00,00,00,00,00,00,00,67,
688561,00000312,false,Rx,0,8,00,10,8F,0A,00,FF,00,0B,
688813,000003F3,false,Rx,0,8,5C,66,07,89,FF,7F,00,80,
689726,000003F3,false,Rx,0,8,5C,66,08,8A,FF,7F,00,80,
689954,000002A0,false,Rx,0,8,00,64,86,00,80,FF,7F,21,
691554,000002A0,false,Rx,0,8,00,65,87,00,80,FF,7F,21,
693372,000002A0,false,Rx,0,8,00,66,88,00,80,FF,7F,21,
695201,000002A0,false,Rx,0,8,00,67,89,00,80,FF,7F,21,
697020,000002A0,false,Rx,0,8,00,68,8A,00,80,FF,7F,21,
708692,00000312,false,Rx,0,8,00,10,8F,0B,00,FF,00,0C,
708935,00000422,false,Rx,0,8,00,00,00,00,00,00,00,67,
709172,000003F3,false,Rx,0,8,5C,66,09,8B,FF,7F,00,80,
709853,000003F3,false,Rx,0,8,5C,66,0A,8C,FF,7F,00,80,
710090,000002A0,false,Rx,0,8,00,69,8B,00,80,FF,7F,21,
711681,000002A0,false,Rx,0,8,00,6A,8C,00,80,FF,7F,21,
713499,000002A0,false,Rx,0,8,00,6B,8D,00,80,FF,7F,21,
715329,000002A0,false,Rx,0,8,00,6C,8E,00,80,FF,7F,21,
717146,000002A0,false,Rx,0,8,00,6D,8F,00,80,FF,7F,21,
728646,00000312,false,Rx,0,8,00,10,8F,0C,00,FF,00,0D,
728889,000003F3,false,Rx,0,8,5C,66,0B,8D,FF,7F,00,80,
729801,000003F3,false,Rx,0,8,5C,66,0C,8E,FF,7F,00,80,
730040,000002A0,false,Rx,0,8,00,6E,90,00,80,FF,7F,21,
731639,00000299,false,Rx,0,8,00,00,00,00,00,00,18,74,
733458,000002A0,false,Rx,0,8,00,60,82,00,80,FF,7F,21,
735287,000002A0,false,Rx,0,8,00,61,83,00,80,FF,7F,21,
737105,000002A0,false,Rx,0,8,00,62,84,00,80,FF,7F,21,
738654,00000422,false,Rx,0,8,00,00,00,00,00,00,00,67,
748692,00000312,false,Rx,0,8,00,10,8F,0D,00,FF,00,0E,
748945,000003F3,false,Rx,0,8,5C,66,0D,8F,FF,7F,00,80,
749859,000003F3,false,Rx,0,8,5C,66,0E,90,FF,7F,00,80,
750095,000002A0,false,Rx,0,8,00,63,85,00,80,FF,7F,21,
751684,000002A0,false,Rx,0,8,00,64,86,00,80,FF,7F,21,
753504,000002A0,false,Rx,0,8,00,65,87,00,80,FF,7F,21,
755333,000002A0,false,Rx,0,8,00,66,88,00,80,FF,7F,21,
757151,000002A0,false,Rx,0,8,00,67,89,00,80,FF,7F,21,
768642,00000312,false,Rx,0,8,00,10,8F,0E,00,FF,00,0F,
768895,00000422,false,Rx,0,8,00,00,00,00,00,00,00,67,
769132,000003F3,false,Rx,0,8,5C,66,00,82,FF,7F,00,80,
769812,000003F3,false,Rx,0,8,5C,66,01,83,FF,7F,00,80,
770038,000002A0,false,Rx,0,8,00,68,8A,00,80,FF,7F,21,
771630,000002A0,false,Rx,0,8,00,69,8B,00,80,FF,7F,21,
773458,000002A0,false,Rx,0,8,00,6A,8C,00,80,FF,7F,21,
775277,000002A0,false,Rx,0,8,00,6B,8D,00,80,FF,7F,21,
777106,000002A0,false,Rx,0,8,00,6C,8E,00,80,FF,7F,21,
788646,00000312,false,Rx,0,8,00,10,8F,00,00,FF,00,01,
788899,000002A0,false,Rx,0,8,00,62,84,00,80,FF,7F,21,
790717,000002A0,false,Rx,0,8,00,63,85,00,80,FF,7F,21,
792539,000002A0,false,Rx,0,8,00,64,86,00,80,FF,7F,21,
794360,000002A0,false,Rx,0,8,00,65,87,00,80,FF,7F,21,
796189,000002A0,false,Rx,0,8,00,66,88,00,80,FF,7F,21,
798653,00000422,false,Rx,0,8,00,00,00,00,00,00,00,67,
808649,00000312,false,Rx,0,8,00,10,8F,01,00,FF,00,02,
808893,000003F3,false,Rx,0,8,5C,66,01,83,FF,7F,00,80,
809806,000003F3,false,Rx,0,8,5C,66,04,86,FF,7F,00,80,
810044,000002A0,false,Rx,0,8,00,67,89,00,80,FF,7F,21,
811635,000002A0,false,Rx,0,8,00,68,8A,00,80,FF,7F,21,
813454,000002A0,false,Rx,0,8,00,69,8B,00,80,FF,7F,21,
815283,000002A0,false,Rx,0,8,00,6A,8C,00,80,FF,7F,21,
817101,000002A0,false,Rx,0,8,00,6B,8D,00,80,FF,7F,21,
828682,00000312,false,Rx,0,8,00,10,8F,02,00,FF,00,03,
828925,00000422,false,Rx,0,8,00,00,00,00,00,00,00,67,
829162,000003F3,false,Rx,0,8,5C,66,05,87,FF,7F,00,80,
829833,000003F3,false,Rx,0,8,5C,66,06,88,FF,7F,00,80,
830070,000002A0,false,Rx,0,8,00,6C,8E,00,80,FF,7F,21,
831661,000002A0,false,Rx,0,8,00,6D,8F,00,80,FF,7F,21,
833490,000002A0,false,Rx,0,8,00,6E,90,00,80,FF,7F,21,
835319,00000299,false,Rx,0,8,00,00,00,00,00,00,18,74,
837137,000002A0,false,Rx,0,8,00,60,82,00,80,FF,7F,21,
848567,00000312,false,Rx,0,8,00,10,8F,03,00,FF,00,04,
848809,000003F3,false,Rx,0,8,5C,66,07,89,FF,7F,00,80,
849724,000003F3,false,Rx,0,8,5C,66,08,8A,FF,7F,00,80,
849961,000002A0,false,Rx,0,8,00,61,83,00,80,FF,7F,21,
851550,000002A0,false,Rx,0,8,00,62,84,00,80,FF,7F,21,
853378,000002A0,false,Rx,0,8,00,63,85,00,80,FF,7F,21,
855198,000002A0,false,Rx,0,8,00,64,86,00,80,FF,7F,21,
857016,000002A0,false,Rx,0,8,00,65,87,00,80,FF,7F,21,
858651,00000422,false,Rx,0,8,00,00,00,00,00,00,00,67,
868647,00000312,false,Rx,0,8,00,10,8F,04,00,FF,00,05,
868901,000003F3,false,Rx,0,8,5C,66,09,8B,FF,7F,00,80,
869803,000003F3,false,Rx,0,8,5C,66,0A,8C,FF,7F,00,80,
870040,000002A0,false,Rx,0,8,00,66,88,00,80,FF,7F,21,
871639,000002A0,false,Rx,0,8,00,67,89,00,80,FF,7F,21,
873457,000002A0,false,Rx,0,8,00,68,8A,00,80,FF,7F,21,
875277,000002A0,false,Rx,0,8,00,69,8B,00,80,FF,7F,21,
877106,000002A0,false,Rx,0,8,00,6A,8C,00,80,FF,7F,21,
888647,00000312,false,Rx,0,8,00,10,8F,05,00,FF,00,06,
888891,00000422,false,Rx,0,8,00,00,00,00,00,00,00,67,
889127,000003F3,false,Rx,0,8,5C,66,0B,8D,FF,7F,00,80,
889807,000003F3,false,Rx,0,8,5C,66,0C,8E,FF,7F,00,80,
890044,000002A0,false,Rx,0,8,00,6B,8D,00,80,FF,7F,21,
891635,000002A0,false,Rx,0,8,00,6C,8E,00,80,FF,7F,21,
893454,000002A0,false,Rx,0,8,00,6D,8F,00,80,FF,7F,21,
895283,000002A0,false,Rx,0,8,00,6E,90,00,80,FF,7F,21,
897112,00000299,false,Rx,0,8,00,00,00,00,00,00,18,74,
908682,00000312,false,Rx,0,8,00,10,8F,06,00,FF,00,07,
908937,000003F3,false,Rx,0,8,5C,66,0D,8F,FF,7F,00,80,
909848,000003F3,false,Rx,0,8,5C,66,0E,90,FF,7F,00,80,
910085,000002A0,false,Rx,0,8,00,60,82,00,80,FF,7F,21,
911685,000002A0,false,Rx,0,8,00,61,83,00,80,FF,7F,21,
913504,000002A0,false,Rx,0,8,00,62,84,00,80,FF,7F,21,
915322,000002A0,false,Rx,0,8,00,63,85,00,80,FF,7F,21,
917140,000002A0,false,Rx,0,8,00,64,86,00,80,FF,7F,21,
918659,00000422,false,Rx,0,8,00,00,00,00,00,00,00,67,
928687,00000312,false,Rx,0,8,00,10,8F,07,00,FF,00,08,
928932,000003F3,false,Rx,0,8,5C,66,00,82,FF,7F,00,80,
929855,000003F3,false,Rx,0,8,5C,66,01,83,FF,7F,00,80,
930090,000002A0,false,Rx,0,8,00,65,87,00,80,FF,7F,21,
931680,000002A0,false,Rx,0,8,00,66,88,00,80,FF,7F,21,
933500,000002A0,false,Rx,0,8,00,67,89,00,80,FF,7F,21,
935318,000002A0,false,Rx,0,8,00,68,8A,00,80,FF,7F,21,
937147,000002A0,false,Rx,0,8,00,69,8B,00,80,FF,7F,21,
948688,00000312,false,Rx,0,8,00,10,8F,08,00,FF,00,09,
948933,00000422,false,Rx,0,8,00,00,00,00,00,00,00,67,
949845,000003F3,false,Rx,0,8,5C,66,04,86,FF,7F,00,80,
950082,000002A0,false,Rx,0,8,00,6A,8C,00,80,FF,7F,21,
951671,000002A0,false,Rx,0,8,00,6B,8D,00,80,FF,7F,21,
953491,000002A0,false,Rx,0,8,00,6C,8E,00,80,FF,7F,21,
955319,000002A0,false,Rx,0,8,00,6D,8F,00,80,FF,7F,21,
957137,000002A0,false,Rx,0,8,00,6E,90,00,80,FF,7F,21,
968647,00000312,false,Rx,0,8,00,10,8F,09,00,FF,00,0A,
968892,000003F3,false,Rx,0,8,5C,66,05,87,FF,7F,00,80,
969804,000003F3,false,Rx,0,8,5C,66,06,88,FF,7F,00,80,
970051,00000299,false,Rx,0,8,00,00,00,00,00,00,18,74,
971641,000002A0,false,Rx,0,8,00,60,82,00,80,FF,7F,21,
973460,000002A0,false,Rx,0,8,00,61,83,00,80,FF,7F,21,
975287,000002A0,false,Rx,0,8,00,62,84,00,80,FF,7F,21,
977106,000002A0,false,Rx,0,8,00,63,85,00,80,FF,7F,21,
978695,00000422,false,Rx,0,8,00,00,00,00,00,00,00,67,
988662,00000312,false,Rx,0,8,00,10,8F,0A,00,FF,00,0B,
988917,000003F3,false,Rx,0,8,5C,66,07,89,FF,7F,00,80,
989829,000003F3,false,Rx,0,8,5C,66,08,8A,FF,7F,00,80,
990066,000002A0,false,Rx,0,8,00,64,86,00,80,FF,7F,21,
991655,000002A0,false,Rx,0,8,00,65,87,00,80,FF,7F,21,
993474,000002A0,false,Rx,0,8,00,66,88,00,80,FF,7F,21,
995303,000002A0,false,Rx,0,8,00,67,89,00,80,FF,7F,21,
997121,000002A0,false,Rx,0,8,00,68,8A,00,80,FF,7F,21,
1008612,00000312,false,Rx,0,8,00,10,8F,0B,00,FF,00,0C,
1008866,00000422,false,Rx,0,8,00,00,00,00,00,00,00,67,
1009102,000003F3,false,Rx,0,8,5C,66,09,8B,FF,7F,00,80,
1009772,000003F3,false,Rx,0,8,5C,66,0A,8C,FF,7F,00,80,
1010009,000002A0,false,Rx,0,8,00,69,8B,00,80,FF,7F,21,
1011601,000002A0,false,Rx,0,8,00,6A,8C,00,80,FF,7F,21,
1013430,000002A0,false,Rx,0,8,00,6B,8D,00,80,FF,7F,21,
1015249,000002A0,false,Rx,0,8,00,6C,8E,00,80,FF,7F,21,
1017067,000002A0,false,Rx,0,8,00,6D,8F,00,80,FF,7F,21,
1028648,00000312,false,Rx,0,8,00,10,8F,0C,00,FF,00,0D,
1028891,000003F3,false,Rx,0,8,5C,66,0B,8D,FF,7F,00,80,
1029803,000003F3,false,Rx,0,8,5C,66,0C,8E,FF,7F,00,80,
1030040,000002A0,false,Rx,0,8,00,6E,90,00,80,FF,7F,21,
1031639,00000299,false,Rx,0,8,00,00,00,00,00,00,18,74,
1033459,000002A0,false,Rx,0,8,00,60,82,00,80,FF,7F,21,
1035277,000002A0,false,Rx,0,8,00,61,83,00,80,FF,7F,21,
1037107,000002A0,false,Rx,0,8,00,62,84,00,80,FF,7F,21,
1038655,00000422,false,Rx,0,8,00,00,00,00,00,00,00,67,
1048644,00000312,false,Rx,0,8,00,10,8F,0D,00,FF,00,0E,
1048888,000003F3,false,Rx,0,8,5C,66,0D,8F,FF,7F,00,80,
1049800,000003F3,false,Rx,0,8,5C,66,0E,90,FF,7F,00,80,
1050036,000002A0,false,Rx,0,8,00,63,85,00,80,FF,7F,21,
1051626,000002A0,false,Rx,0,8,00,64,86,00,80,FF,7F,21,
1053455,000002A0,false,Rx,0,8,00,65,87,00,80,FF,7F,21,
1055273,000002A0,false,Rx,0,8,00,66,88,00,80,FF,7F,21,
1057093,000002A0,false,Rx,0,8,00,67,89,00,80,FF,7F,21,
1068644,00000312,false,Rx,0,8,00,10,8F,0E,00,FF,00,0F,
1068888,00000422,false,Rx,0,8,00,00,00,00,00,00,00,67,
1069134,000003F3,false,Rx,0,8,5C,66,00,82,FF,7F,00,80,
1069814,000003F3,false,Rx,0,8,5C,66,01,83,FF,7F,00,80,
1070041,000002A0,false,Rx,0,8,00,68,8A,00,80,FF,7F,21,
1071633,000002A0,false,Rx,0,8,00,69,8B,00,80,FF,7F,21,
1073462,000002A0,false,Rx,0,8,00,6A,8C,00,80,FF,7F,21,
1075281,000002A0,false,Rx,0,8,00,6B,8D,00,80,FF,7F,21,
1077101,000002A0,false,Rx,0,8,00,6C,8E,00,80,FF,7F,21,
1088651,00000312,false,Rx,0,8,00,10,8F,00,00,FF,00,01,
1088894,000002A0,false,Rx,0,8,00,62,84,00,80,FF,7F,21,
1090721,000002A0,false,Rx,0,8,00,63,85,00,80,FF,7F,21,
1092534,000002A0,false,Rx,0,8,00,64,86,00,80,FF,7F,21,
1094355,000002A0,false,Rx,0,8,00,65,87,00,80,FF,7F,21,
1096183,000002A0,false,Rx,0,8,00,66,88,00,80,FF,7F,21,
1098658,00000422,false,Rx,0,8,00,00,00,00,00,00,00,67,
1108646,00000312,false,Rx,0,8,00,10,8F,01,00,FF,00,02,
1108899,000003F3,false,Rx,0,8,5C,66,01,83,FF,7F,00,80,
1109801,000003F3,false,Rx,0,8,5C,66,04,86,FF,7F,00,80,
1110040,000002A0,false,Rx,0,8,00,67,89,00,80,FF,7F,21,
1111629,000002A0,false,Rx,0,8,00,68,8A,00,80,FF,7F,21,
1113458,000002A0,false,Rx,0,8,00,69,8B,00,80,FF,7F,21,
1115276,000002A0,false,Rx,0,8,00,6A,8C,00,80,FF,7F,21,
1117105,000002A0,false,Rx,0,8,00,6B,8D,00,80,FF,7F,21,
1128646,00000312,false,Rx,0,8,00,10,8F,02,00,FF,00,03,
1128889,00000422,false,Rx,0,8,00,00,00,00,00,00,00,67,
1129135,000003F3,false,Rx,0,8,5C,66,05,87,FF,7F,00,80,
1129805,000003F3,false,Rx,0,8,5C,66,06,88,FF,7F,00,80,
1130043,000002A0,false,Rx,0,8,00,6C,8E,00,80,FF,7F,21,
1131634,000002A0,false,Rx,0,8,00,6D,8F,00,80,FF,7F,21,
1133463,000002A0,false,Rx,0,8,00,6E,90,00,80,FF,7F,21,
1135291,00000299,false,Rx,0,8,00,00,00,00,00,00,18,74,
1137110,000002A0,false,Rx,0,8,00,60,82,00,80,FF,7F,21,
1148661,00000312,false,Rx,0,8,00,10,8F,03,00,FF,00,04,
1148905,000003F3,false,Rx,0,8,5C,66,07,89,FF,7F,00,80,
1149817,000003F3,false,Rx,0,8,5C,66,08,8A,FF,7F,00,80,
1150065,000002A0,false,Rx,0,8,00,61,83,00,80,FF,7F,21,
1151655,000002A0,false,Rx,0,8,00,62,84,00,80,FF,7F,21,
1153473,000002A0,false,Rx,0,8,00,63,85,00,80,FF,7F,21,
1155291,000002A0,false,Rx,0,8,00,64,86,00,80,FF,7F,21,
1157111,000002A0,false,Rx,0,8,00,65,87,00,80,FF,7F,21,
1158610,00000422,false,Rx,0,8,00,00,00,00,00,00,00,67,
1168618,00000312,false,Rx,0,8,00,10,8F,04,00,FF,00,05,
1168871,000003F3,false,Rx,0,8,5C,66,09,8B,FF,7F,00,80,
1169773,000003F3,false,Rx,0,8,5C,66,0A,8C,FF,7F,00,80,
1170011,000002A0,false,Rx,0,8,00,66,88,00,80,FF,7F,21,
1171611,000002A0,false,Rx,0,8,00,67,89,00,80,FF,7F,21,
1173429,000002A0,false,Rx,0,8,00,68,8A,00,80,FF,7F,21,
1175257,000002A0,false,Rx,0,8,00,69,8B,00,80,FF,7F,21,
1177076,000002A0,false,Rx,0,8,00,6A,8C,00,80,FF,7F,21,
1188646,00000312,false,Rx,0,8,00,10,8F,05,00,FF,00,06,
1188890,00000422,false,Rx,0,8,00,00,00,00,00,00,00,67,
1189125,000003F3,false,Rx,0,8,5C,66,0B,8D,FF,7F,00,80,
1189806,000003F3,false,Rx,0,8,5C,66,0C,8E,FF,7F,00,80,
1190044,000002A0,false,Rx,0,8,00,6B,8D,00,80,FF,7F,21,
1191637,000002A0,false,Rx,0,8,00,6C,8E,00,80,FF,7F,21,
1193455,000002A0,false,Rx,0,8,00,6D,8F,00,80,FF,7F,21,
1195285,000002A0,false,Rx,0,8,00,6E,90,00,80,FF,7F,21,
1197103,00000299,false,Rx,0,8,00,00,00,00,00,00,18,74,
1208685,00000312,false,Rx,0,8,00,10,8F,06,00,FF,00,07,
1208938,000003F3,false,Rx,0,8,5C,66,0D,8F,FF,7F,00,80,
1209850,000003F3,false,Rx,0,8,5C,66,0E,90,FF,7F,00,80,
1210088,000002A0,false,Rx,0,8,00,60,82,00,80,FF,7F,21,
1211677,000002A0,false,Rx,0,8,00,61,83,00,80,FF,7F,21,
1213505,000002A0,false,Rx,0,8,00,62,84,00,80,FF,7F,21,
1215325,000002A0,false,Rx,0,8,00,63,85,00,80,FF,7F,21,
1217143,000002A0,false,Rx,0,8,00,64,86,00,80,FF,7F,21,
1218651,00000422,false,Rx,0,8,00,00,00,00,00,00,00,67,
1228639,00000312,false,Rx,0,8,00,10,8F,07,00,FF,00,08,
1228893,000003F3,false,Rx,0,8,5C,66,00,82,FF,7F,00,80,
1229805,000003F3,false,Rx,0,8,5C,66,01,83,FF,7F,00,80,
1230044,000002A0,false,Rx,0,8,00,65,87,00,80,FF,7F,21,
1231633,000002A0,false,Rx,0,8,00,66,88,00,80,FF,7F,21,
1233451,000002A0,false,Rx,0,8,00,67,89,00,80,FF,7F,21,
1235272,000002A0,false,Rx,0,8,00,68,8A,00,80,FF,7F,21,
1237100,000002A0,false,Rx,0,8,00,69,8B,00,80,FF,7F,21,
1248662,00000312,false,Rx,0,8,00,10,8F,08,00,FF,00,09,
1248905,00000422,false,Rx,0,8,00,00,00,00,00,00,00,67,
1249819,000003F3,false,Rx,0,8,5C,66,04,86,FF,7F,00,80,
1250045,000002A0,false,Rx,0,8,00,6A,8C,00,80,FF,7F,21,
1251645,000002A0,false,Rx,0,8,00,6B,8D,00,80,FF,7F,21,
1253463,000002A0,false,Rx,0,8,00,6C,8E,00,80,FF,7F,21,
1255283,000002A0,false,Rx,0,8,00,6D,8F,00,80,FF,7F,21,
1257111,000002A0,false,Rx,0,8,00,6E,90,00,80,FF,7F,21,
1268641,00000312,false,Rx,0,8,00,10,8F,09,00,FF,00,0A,
1268884,000003F3,false,Rx,0,8,5C,66,05,87,FF,7F,00,80,
1269797,000003F3,false,Rx,0,8,5C,66,06,88,FF,7F,00,80,
1270044,00000299,false,Rx,0,8,00,00,00,00,00,00,18,74,
1271634,000002A0,false,Rx,0,8,00,60,82,00,80,FF,7F,21,
1273452,000002A0,false,Rx,0,8,00,61,83,00,80,FF,7F,21,
1275272,000002A0,false,Rx,0,8,00,62,84,00,80,FF,7F,21,
1277091,000002A0,false,Rx,0,8,00,63,85,00,80,FF,7F,21,
1278700,00000422,false,Rx,0,8,00,00,00,00,00,00,00,67,
1288638,00000312,false,Rx,0,8,00,10,8F,0A,00,FF,00,0B,
1288891,000003F3,false,Rx,0,8,5C,66,07,89,FF,7F,00,80,
1289804,000003F3,false,Rx,0,8,5C,66,08,8A,FF,7F,00,80,
1290041,000002A0,false,Rx,0,8,00,64,86,00,80,FF,7F,21,
1291630,000002A0,false,Rx,0,8,00,65,87,00,80,FF,7F,21,
1293449,000002A0,false,Rx,0,8,00,66,88,00,80,FF,7F,21,
1295278,000002A0,false,Rx,0,8,00,67,89,00,80,FF,7F,21,
1297096,000002A0,false,Rx,0,8,00,68,8A,00,80,FF,7F,21,
1308606,00000312,false,Rx,0,8,00,10,8F,0B,00,FF,00,0C,
1308859,00000422,false,Rx,0,8,00,00,00,00,00,00,00,67,
1309096,000003F3,false,Rx,0,8,5C,66,09,8B,FF,7F,00,80,
1309767,000003F3,false,Rx,0,8,5C,66,0A,8C,FF,7F,00,80,
1310004,000002A0,false,Rx,0,8,00,69,8B,00,80,FF,7F,21,
1311605,000002A0,false,Rx,0,8,00,6A,8C,00,80,FF,7F,21,
1313423,000002A0,false,Rx,0,8,00,6B,8D,00,80,FF,7F,21,
1315243,000002A0,false,Rx,0,8,00,6C,8E,00,80,FF,7F,21,
1317061,000002A0,false,Rx,0,8,00,6D,8F,00,80,FF,7F,21,
1328622,00000312,false,Rx,0,8,00,10,8F,0C,00,FF,00,0D,
1328875,000003F3,false,Rx,0,8,5C,66,0B,8D,FF,7F,00,80,
1329788,000003F3,false,Rx,0,8,5C,66,0C,8E,FF,7F,00,80,
1330025,000002A0,false,Rx,0,8,00,6E,90,00,80,FF,7F,21,
1331624,00000299,false,Rx,0,8,00,00,00,00,00,00,18,74,
1333444,000002A0,false,Rx,0,8,00,60,82,00,80,FF,7F,21,
1335263,000002A0,false,Rx,0,8,00,61,83,00,80,FF,7F,21,
1337081,000002A0,false,Rx,0,8,00,62,84,00,80,FF,7F,21,
1338690,00000422,false,Rx,0,8,00,00,00,00,00,00,00,67,
1348639,00000312,false,Rx,0,8,00,10,8F,0D,00,FF,00,0E,
1348894,000003F3,false,Rx,0,8,5C,66,0D,8F,FF,7F,00,80,
1349795,000003F3,false,Rx,0,8,5C,66,0E,90,FF,7F,00,80,
1350042,000002A0,false,Rx,0,8,00,63,85,00,80,FF,7F,21,
1351624,000002A0,false,Rx,0,8,00,64,86,00,80,FF,7F,21,
1353452,000002A0,false,Rx,0,8,00,65,87,00,80,FF,7F,21,
1355272,000002A0,false,Rx,0,8,00,66,88,00,80,FF,7F,21,
1357100,000002A0,false,Rx,0,8,00,67,89,00,80,FF,7F,21,
1368641,00000312,false,Rx,0,8,00,10,8F,0E,00,FF,00,0F,
1368896,00000422,false,Rx,0,8,00,00,00,00,00,00,00,67,
1369131,000003F3,false,Rx,0,8,5C,66,00,82,FF,7F,00,80,
1369812,000003F3,false,Rx,0,8,5C,66,01,83,FF,7F,00,80,
1370049,000002A0,false,Rx,0,8,00,68,8A,00,80,FF,7F,21,
1371640,000002A0,false,Rx,0,8,00,69,8B,00,80,FF,7F,21,
1373460,000002A0,false,Rx,0,8,00,6A,8C,00,80,FF,7F,21,
1375278,000002A0,false,Rx,0,8,00,6B,8D,00,80,FF,7F,21,
1377106,000002A0,false,Rx,0,8,00,6C,8E,00,80,FF,7F,21,
1388647,00000312,false,Rx,0,8,00,10,8F,00,00,FF,00,01,
1388901,000002A0,false,Rx,0,8,00,62,84,00,80,FF,7F,21,
1390718,000002A0,false,Rx,0,8,00,63,85,00,80,FF,7F,21,
1392540,000002A0,false,Rx,0,8,00,64,86,00,80,FF,7F,21,
1394362,000002A0,false,Rx,0,8,00,65,87,00,80,FF,7F,21,
1396180,000002A0,false,Rx,0,8,00,66,88,00,80,FF,7F,21,
1398654,00000422,false,Rx,0,8,00,00,00,00,00,00,00,67,
1408680,00000312,false,Rx,0,8,00,10,8F,01,00,FF,00,02,
1408934,000003F3,false,Rx,0,8,5C,66,01,83,FF,7F,00,80,
1409836,000003F3,false,Rx,0,8,5C,66,04,86,FF,7F,00,80,
1410084,000002A0,false,Rx,0,8,00,67,89,00,80,FF,7F,21,
1411675,000002A0,false,Rx,0,8,00,68,8A,00,80,FF,7F,21,
1413494,000002A0,false,Rx,0,8,00,69,8B,00,80,FF,7F,21,
1415313,000002A0,false,Rx,0,8,00,6A,8C,00,80,FF,7F,21,
1417141,000002A0,false,Rx,0,8,00,6B,8D,00,80,FF,7F,21,
1428652,00000312,false,Rx,0,8,00,10,8F,02,00,FF,00,03,
1428897,00000422,false,Rx,0,8,00,00,00,00,00,00,00,67,
1429132,000003F3,false,Rx,0,8,5C,66,05,87,FF,7F,00,80,
1429802,000003F3,false,Rx,0,8,5C,66,06,88,FF,7F,00,80,
1430039,000002A0,false,Rx,0,8,00,6C,8E,00,80,FF,7F,21,
1431631,000002A0,false,Rx,0,8,00,6D,8F,00,80,FF,7F,21,
1433461,000002A0,false,Rx,0,8,00,6E,90,00,80,FF,7F,21,
1435289,00000299,false,Rx,0,8,00,00,00,00,00,00,18,74,
1437107,000002A0,false,Rx,0,8,00,60,82,00,80,FF,7F,21,
1448647,00000312,false,Rx,0,8,00,10,8F,03,00,FF,00,04,
1448892,000003F3,false,Rx,0,8,5C,66,07,89,FF,7F,00,80,
1449803,000003F3,false,Rx,0,8,5C,66,08,8A,FF,7F,00,80,
1450040,000002A0,false,Rx,0,8,00,61,83,00,80,FF,7F,21,
1451640,000002A0,false,Rx,0,8,00,62,84,00,80,FF,7F,21,
1453459,000002A0,false,Rx,0,8,00,63,85,00,80,FF,7F,21,
1455277,000002A0,false,Rx,0,8,00,64,86,00,80,FF,7F,21,
1457096,000002A0,false,Rx,0,8,00,65,87,00,80,FF,7F,21,
1458675,00000422,false,Rx,0,8,00,00,00,00,00,00,00,67,
1468612,00000312,false,Rx,0,8,00,10,8F,04,00,FF,00,05,
1468856,000003F3,false,Rx,0,8,5C,66,09,8B,FF,7F,00,80,
1469768,000003F3,false,Rx,0,8,5C,66,0A,8C,FF,7F,00,80,
1470005,000002A0,false,Rx,0,8,00,66,88,00,80,FF,7F,21,
1471605,000002A0,false,Rx,0,8,00,67,89,00,80,FF,7F,21,
1473424,000002A0,false,Rx,0,8,00,68,8A,00,80,FF,7F,21,
1475241,000002A0,false,Rx,0,8,00,69,8B,00,80,FF,7F,21,
1477070,000002A0,false,Rx,0,8,00,6A,8C,00,80,FF,7F,21,
1488632,00000312,false,Rx,0,8,00,10,8F,05,00,FF,00,06,
1488876,00000422,false,Rx,0,8,00,00,00,00,00,00,00,67,
1489112,000003F3,false,Rx,0,8,5C,66,0B,8D,FF,7F,00,80,
1489792,000003F3,false,Rx,0,8,5C,66,0C,8E,FF,7F,00,80,
1490029,000002A0,false,Rx,0,8,00,6B,8D,00,80,FF,7F,21,
1491621,000002A0,false,Rx,0,8,00,6C,8E,00,80,FF,7F,21,
1493440,000002A0,false,Rx,0,8,00,6D,8F,00,80,FF,7F,21,
1495259,000002A0,false,Rx,0,8,00,6E,90,00,80,FF,7F,21,
1497087,00000299,false,Rx,0,8,00,00,00,00,00,00,18,74,
1508699,00000312,false,Rx,0,8,00,10,8F,06,00,FF,00,07,
1508943,000003F3,false,Rx,0,8,5C,66,0D,8F,FF,7F,00,80,
1509856,000003F3,false,Rx,0,8,5C,66,0E,90,FF,7F,00,80,
1510092,000002A0,false,Rx,0,8,00,60,82,00,80,FF,7F,21,
1511691,000002A0,false,Rx,0,8,00,61,83,00,80,FF,7F,21,
1513510,000002A0,false,Rx,0,8,00,62,84,00,80,FF,7F,21,
1515329,000002A0,false,Rx,0,8,00,63,85,00,80,FF,7F,21,
1517148,000002A0,false,Rx,0,8,00,64,86,00,80,FF,7F,21,
1518647,00000422,false,Rx,0,8,00,00,00,00,00,00,00,67,
1528646,00000312,false,Rx,0,8,00,10,8F,07,00,FF,00,08,
1528889,000003F3,false,Rx,0,8,5C,66,00,82,FF,7F,00,80,
1529801,000003F3,false,Rx,0,8,5C,66,01,83,FF,7F,00,80,
1530038,000002A0,false,Rx,0,8,00,65,87,00,80,FF,7F,21,
1531637,000002A0,false,Rx,0,8,00,66,88,00,80,FF,7F,21,
1533458,000002A0,false,Rx,0,8,00,67,89,00,80,FF,7F,21,
1535276,000002A0,false,Rx,0,8,00,68,8A,00,80,FF,7F,21,
1537095,000002A0,false,Rx,0,8,00,69,8B,00,80,FF,7F,21,
1548646,00000312,false,Rx,0,8,00,10,8F,08,00,FF,00,09,
1548889,00000422,false,Rx,0,8,00,00,00,00,00,00,00,67,
1549791,000003F3,false,Rx,0,8,5C,66,04,86,FF,7F,00,80,
1550029,000002A0,false,Rx,0,8,00,6A,8C,00,80,FF,7F,21,
1551629,000002A0,false,Rx,0,8,00,6B,8D,00,80,FF,7F,21,
1553449,000002A0,false,Rx,0,8,00,6C,8E,00,80,FF,7F,21,
1555267,000002A0,false,Rx,0,8,00,6D,8F,00,80,FF,7F,21,
1557096,000002A0,false,Rx,0,8,00,6E,90,00,80,FF,7F,21,
1568646,00000312,false,Rx,0,8,00,10,8F,09,00,FF,00,0A,
1568889,000003F3,false,Rx,0,8,5C,66,05,87,FF,7F,00,80,
1569801,000003F3,false,Rx,0,8,5C,66,06,88,FF,7F,00,80,
1570038,00000299,false,Rx,0,8,00,00,00,00,00,00,18,74,
1571639,000002A0,false,Rx,0,8,00,60,82,00,80,FF,7F,21,
1573458,000002A0,false,Rx,0,8,00,61,83,00,80,FF,7F,21,
1575276,000002A0,false,Rx,0,8,00,62,84,00,80,FF,7F,21,
1577096,000002A0,false,Rx,0,8,00,63,85,00,80,FF,7F,21,
1578696,00000422,false,Rx,0,8,00,00,00,00,00,00,00,67,
1588644,00000312,false,Rx,0,8,00,10,8F,0A,00,FF,00,0B,
1588888,000003F3,false,Rx,0,8,5C,66,07,89,FF,7F,00,80,
1589800,000003F3,false,Rx,0,8,5C,66,08,8A,FF,7F,00,80,
1590038,000002A0,false,Rx,0,8,00,64,86,00,80,FF,7F,21,
1591627,000002A0,false,Rx,0,8,00,65,87,00,80,FF,7F,21,
1593455,000002A0,false,Rx,0,8,00,66,88,00,80,FF,7F,21,
1595273,000002A0,false,Rx,0,8,00,67,89,00,80,FF,7F,21,
1597092,000002A0,false,Rx,0,8,00,68,8A,00,80,FF,7F,21,
