Time Stamp,ID,Extended,Dir,Bus,LEN,D1,D2,D3,D4,D5,D6,D7,D8
20984005,000002A0,false,Rx,0,8,00,68,12,08,00,F7,FF,21,
20985823,000002A0,false,Rx,0,8,00,69,13,08,00,F7,FF,21,
20987362,00000422,false,Rx,0,8,00,00,00,00,00,00,00,67,
20997299,00000312,false,Rx,0,8,00,10,88,78,00,FF,00,10,
20998463,000003F3,false,Rx,0,8,7C,24,00,0A,F7,FF,08,00,
20998699,000002A0,false,Rx,0,8,00,6A,14,08,00,F7,FF,21,
21000286,000002A0,false,Rx,0,8,00,6B,15,08,00,F7,FF,21,
21002116,000002A0,false,Rx,0,8,00,6C,16,08,00,F7,FF,21,
21003924,000002A0,false,Rx,0,8,00,6D,17,08,00,F7,FF,21,
21005752,000002A0,false,Rx,0,8,00,6E,18,08,00,F7,FF,21,
21017426,00000312,false,Rx,0,8,00,10,88,79,00,FF,00,11,
21017680,00000422,false,Rx,0,8,00,00,00,00,00,00,00,67,
21018593,000003F3,false,Rx,0,8,7C,24,01,0B,F7,FF,08,00,
21018829,00000299,false,Rx,0,8,00,00,00,00,00,00,18,74,
21020420,000002A0,false,Rx,0,8,00,60,0A,08,00,F7,FF,21,
21022238,000002A0,false,Rx,0,8,00,61,0B,08,00,F7,FF,21,
21024055,000002A0,false,Rx,0,8,00,62,0C,08,00,F7,FF,21,
21025875,000002A0,false,Rx,0,8,00,63,0D,08,00,F7,FF,21,
21037468,00000312,false,Rx,0,8,00,10,88,7A,00,FF,00,12,
21038619,000003F3,false,Rx,0,8,7C,24,02,0C,F7,FF,08,00,
21038866,000002A0,false,Rx,0,8,00,64,0E,08,00,F7,FF,21,
21040453,000002A0,false,Rx,0,8,00,65,0F,08,00,F7,FF,21,
21042272,000002A0,false,Rx,0,8,00,66,10,08,00,F7,FF,21,
21044090,000002A0,false,Rx,0,8,00,67,11,08,00,F7,FF,21,
21045919,000002A0,false,Rx,0,8,00,68,12,08,00,F7,FF,21,
21047387,00000422,false,Rx,0,8,00,00,00,00,00,00,00,67,
21057436,00000312,false,Rx,0,8,00,10,88,7B,00,FF,00,13,
21058599,000003F3,false,Rx,0,8,7C,24,03,0D,F7,FF,08,00,
21058836,000002A0,false,Rx,0,8,00,69,13,08,00,F7,FF,21,
21060424,000002A0,false,Rx,0,8,00,6A,14,08,00,F7,FF,21,
21062242,000002A0,false,Rx,0,8,00,6B,15,08,00,F7,FF,21,
21064070,000002A0,false,Rx,0,8,00,6C,16,08,00,F7,FF,21,
21065879,000002A0,false,Rx,0,8,00,6D,17,08,00,F7,FF,21,
21077389,00000312,false,Rx,0,8,00,10,88,7C,00,FF,00,14,
21077632,00000422,false,Rx,0,8,00,00,00,00,00,00,00,67,
21078545,000003F3,false,Rx,0,8,7C,24,04,0E,F7,FF,08,00,
21078780,000002A0,false,Rx,0,8,00,6E,18,08,00,F7,FF,21,
21080371,00000299,false,Rx,0,8,00,00,00,00,00,00,18,74,
21082200,000002A0,false,Rx,0,8,00,60,0A,08,00,F7,FF,21,
21084008,000002A0,false,Rx,0,8,00,61,0B,08,00,F7,FF,21,
21085838,000002A0,false,Rx,0,8,00,62,0C,08,00,F7,FF,21,
21097379,00000312,false,Rx,0,8,00,10,88,7D,00,FF,00,15,
21098541,000003F3,false,Rx,0,8,7C,24,05,0F,F7,FF,08,00,
21098778,000002A0,false,Rx,0,8,00,63,0D,08,00,F7,FF,21,
21100375,000002A0,false,Rx,0,8,00,64,0E,08,00,F7,FF,21,
21102193,000002A0,false,Rx,0,8,00,65,0F,08,00,F7,FF,21,
21104011,000002A0,false,Rx,0,8,00,66,10,08,00,F7,FF,21,
21105831,000002A0,false,Rx,0,8,00,67,11,08,00,F7,FF,21,
21107389,00000422,false,Rx,0,8,00,00,00,00,00,00,00,67,
21117389,00000312,false,Rx,0,8,00,10,88,7E,00,FF,00,16,
21118541,000003F3,false,Rx,0,8,7C,24,06,10,F7,FF,08,00,
21118788,000002A0,false,Rx,0,8,00,68,12,08,00,F7,FF,21,
21120365,000002A0,false,Rx,0,8,00,69,13,08,00,F7,FF,21,
21122193,000002A0,false,Rx,0,8,00,6A,14,08,00,F7,FF,21,
21124011,000002A0,false,Rx,0,8,00,6B,15,08,00,F7,FF,21,
21125841,000002A0,false,Rx,0,8,00,6C,16,08,00,F7,FF,21,
21137412,00000312,false,Rx,0,8,00,10,88,70,00,FF,00,08,
21137665,00000422,false,Rx,0,8,00,00,00,00,00,00,00,67,
21138578,000003F3,false,Rx,0,8,7C,24,07,11,F7,FF,08,00,
21138815,000002A0,false,Rx,0,8,00,62,0C,08,00,F7,FF,21,
21140405,000002A0,false,Rx,0,8,00,63,0D,08,00,F7,FF,21,
21142223,000002A0,false,Rx,0,8,00,64,0E,08,00,F7,FF,21,
21144040,000002A0,false,Rx,0,8,00,65,0F,08,00,F7,FF,21,
21145870,000002A0,false,Rx,0,8,00,66,10,08,00,F7,FF,21,
21157299,00000312,false,Rx,0,8,00,10,88,71,00,FF,00,09,
21158461,000003F3,false,Rx,0,8,7C,24,08,12,F7,FF,08,00,
21158698,000002A0,false,Rx,0,8,00,67,11,08,00,F7,FF,21,
21160285,000002A0,false,Rx,0,8,00,68,12,08,00,F7,FF,21,
21162104,000002A0,false,Rx,0,8,00,69,13,08,00,F7,FF,21,
21163932,000002A0,false,Rx,0,8,00,6A,14,08,00,F7,FF,21,
21165752,000002A0,false,Rx,0,8,00,6B,15,08,00,F7,FF,21,
21167387,00000422,false,Rx,0,8,00,00,00,00,00,00,00,67,
21177382,00000312,false,Rx,0,8,00,10,88,72,00,FF,00,0A,
21178544,000003F3,false,Rx,0,8,7C,24,09,13,F7,FF,08,00,
21178781,000002A0,false,Rx,0,8,00,6C,16,08,00,F7,FF,21,
21180369,000002A0,false,Rx,0,8,00,6D,17,08,00,F7,FF,21,
21182187,000002A0,false,Rx,0,8,00,6E,18,08,00,F7,FF,21,
21184016,00000299,false,Rx,0,8,00,00,00,00,00,00,18,74,
21185834,000002A0,false,Rx,0,8,00,60,0A,08,00,F7,FF,21,
21197384,00000312,false,Rx,0,8,00,10,88,73,00,FF,00,0B,
21197627,00000422,false,Rx,0,8,00,00,00,00,00,00,00,67,
21198551,000003F3,false,Rx,0,8,7C,24,0A,14,F7,FF,08,00,
21198788,000002A0,false,Rx,0,8,00,61,0B,08,00,F7,FF,21,
21200377,000002A0,false,Rx,0,8,00,62,0C,08,00,F7,FF,21,
21202186,000002A0,false,Rx,0,8,00,63,0D,08,00,F7,FF,21,
21204015,000002A0,false,Rx,0,8,00,64,0E,08,00,F7,FF,21,
21205833,000002A0,false,Rx,0,8,00,65,0F,08,00,F7,FF,21,
21217374,00000312,false,Rx,0,8,00,10,88,74,00,FF,00,0C,
21218536,000003F3,false,Rx,0,8,7C,24,0B,15,F7,FF,08,00,
21218773,000002A0,false,Rx,0,8,00,66,10,08,00,F7,FF,21,
21220361,000002A0,false,Rx,0,8,00,67,11,08,00,F7,FF,21,
21222180,000002A0,false,Rx,0,8,00,68,12,08,00,F7,FF,21,
21223999,000002A0,false,Rx,0,8,00,69,13,08,00,F7,FF,21,
21225828,000002A0,false,Rx,0,8,00,6A,14,08,00,F7,FF,21,
21227397,00000422,false,Rx,0,8,00,00,00,00,00,00,00,67,
21237374,00000312,false,Rx,0,8,00,10,88,75,00,FF,00,0D,
21238537,000003F3,false,Rx,0,8,7C,24,0C,16,F7,FF,08,00,
21238773,000002A0,false,Rx,0,8,00,6B,15,08,00,F7,FF,21,
21240370,000002A0,false,Rx,0,8,00,6C,16,08,00,F7,FF,21,
21242178,000002A0,false,Rx,0,8,00,6D,17,08,00,F7,FF,21,
21244007,000002A0,false,Rx,0,8,00,6E,18,08,00,F7,FF,21,
21245826,00000299,false,Rx,0,8,00,00,00,00,00,00,18,74,
21257430,00000312,false,Rx,0,8,00,10,88,76,00,FF,00,0E,
21257683,00000422,false,Rx,0,8,00,00,00,00,00,00,00,67,
21258597,000003F3,false,Rx,0,8,7C,24,0D,17,F7,FF,08,00,
21258833,000002A0,false,Rx,0,8,00,60,0A,08,00,F7,FF,21,
21260423,000002A0,false,Rx,0,8,00,61,0B,08,00,F7,FF,21,
21262241,000002A0,false,Rx,0,8,00,62,0C,08,00,F7,FF,21,
21264061,000002A0,false,Rx,0,8,00,63,0D,08,00,F7,FF,21,
21265889,000002A0,false,Rx,0,8,00,64,0E,08,00,F7,FF,21,
21277379,00000312,false,Rx,0,8,00,10,88,77,00,FF,00,0F,
21278542,000003F3,false,Rx,0,8,7C,24,0E,18,F7,FF,08,00,
21278778,000002A0,false,Rx,0,8,00,65,0F,08,00,F7,FF,21,
21280366,000002A0,false,Rx,0,8,00,66,10,08,00,F7,FF,21,
21282184,000002A0,false,Rx,0,8,00,67,11,08,00,F7,FF,21,
21284014,000002A0,false,Rx,0,8,00,68,12,08,00,F7,FF,21,
21285823,000002A0,false,Rx,0,8,00,69,13,08,00,F7,FF,21,
21287432,00000422,false,Rx,0,8,00,00,00,00,00,00,00,67,
21297402,00000312,false,Rx,0,8,00,10,88,78,00,FF,00,10,
21298565,000003F3,false,Rx,0,8,7C,24,00,0A,F7,FF,08,00,
21298801,000002A0,false,Rx,0,8,00,6A,14,08,00,F7,FF,21,
21300389,000002A0,false,Rx,0,8,00,6B,15,08,00,F7,FF,21,
21302217,000002A0,false,Rx,0,8,00,6C,16,08,00,F7,FF,21,
21304036,000002A0,false,Rx,0,8,00,6D,17,08,00,F7,FF,21,
21305854,000002A0,false,Rx,0,8,00,6E,18,08,00,F7,FF,21,
21317354,00000312,false,Rx,0,8,00,10,88,79,00,FF,00,11,
21317597,00000422,false,Rx,0,8,00,00,00,00,00,00,00,67,
21318512,000003F3,false,Rx,0,8,7C,24,01,0B,F7,FF,08,00,
21318757,00000299,false,Rx,0,8,00,00,00,00,00,00,18,74,
21320337,000002A0,false,Rx,0,8,00,60,0A,08,00,F7,FF,21,
21322155,000002A0,false,Rx,0,8,00,61,0B,08,00,F7,FF,21,
21323985,000002A0,false,Rx,0,8,00,62,0C,08,00,F7,FF,21,
21325803,000002A0,false,Rx,0,8,00,63,0D,08,00,F7,FF,21,
21337374,00000312,false,Rx,0,8,00,10,88,7A,00,FF,00,12,
21338537,000003F3,false,Rx,0,8,7C,24,02,0C,F7,FF,08,00,
21338783,000002A0,false,Rx,0,8,00,64,0E,08,00,F7,FF,21,
21340361,000002A0,false,Rx,0,8,00,65,0F,08,00,F7,FF,21,
21342180,000002A0,false,Rx,0,8,00,66,10,08,00,F7,FF,21,
21344010,000002A0,false,Rx,0,8,00,67,11,08,00,F7,FF,21,
21345828,000002A0,false,Rx,0,8,00,68,12,08,00,F7,FF,21,
21347386,00000422,false,Rx,0,8,00,00,00,00,00,00,00,67,
21357374,00000312,false,Rx,0,8,00,10,88,7B,00,FF,00,13,
21358538,000003F3,false,Rx,0,8,7C,24,03,0D,F7,FF,08,00,
21358773,000002A0,false,Rx,0,8,00,69,13,08,00,F7,FF,21,
21360361,000002A0,false,Rx,0,8,00,6A,14,08,00,F7,FF,21,
21362190,000002A0,false,Rx,0,8,00,6B,15,08,00,F7,FF,21,
21364008,000002A0,false,Rx,0,8,00,6C,16,08,00,F7,FF,21,
21365827,000002A0,false,Rx,0,8,00,6D,17,08,00,F7,FF,21,
21377389,00000312,false,Rx,0,8,00,10,88,7C,00,FF,00,14,
21377633,00000422,false,Rx,0,8,00,00,00,00,00,00,00,67,
21378546,000003F3,false,Rx,0,8,7C,24,04,0E,F7,FF,08,00,
21378782,000002A0,false,Rx,0,8,00,6E,18,08,00,F7,FF,21,
21380382,00000299,false,Rx,0,8,00,00,00,00,00,00,18,74,
21382191,000002A0,false,Rx,0,8,00,60,0A,08,00,F7,FF,21,
21384019,000002A0,false,Rx,0,8,00,61,0B,08,00,F7,FF,21,
21385837,000002A0,false,Rx,0,8,00,62,0C,08,00,F7,FF,21,
21397380,00000312,false,Rx,0,8,00,10,88,7D,00,FF,00,15,
21398543,000003F3,false,Rx,0,8,7C,24,05,0F,F7,FF,08,00,
21398779,000002A0,false,Rx,0,8,00,63,0D,08,00,F7,FF,21,
21400366,000002A0,false,Rx,0,8,00,64,0E,08,00,F7,FF,21,
21402186,000002A0,false,Rx,0,8,00,65,0F,08,00,F7,FF,21,
21404004,000002A0,false,Rx,0,8,00,66,10,08,00,F7,FF,21,
21405832,000002A0,false,Rx,0,8,00,67,11,08,00,F7,FF,21,
21407391,00000422,false,Rx,0,8,00,00,00,00,00,00,00,67,
21417389,00000312,false,Rx,0,8,00,10,88,7E,00,FF,00,16,
21418543,000003F3,false,Rx,0,8,7C,24,06,10,F7,FF,08,00,
21418778,000002A0,false,Rx,0,8,00,68,12,08,00,F7,FF,21,
21420366,000002A0,false,Rx,0,8,00,69,13,08,00,F7,FF,21,
21422195,000002A0,false,Rx,0,8,00,6A,14,08,00,F7,FF,21,
21424015,000002A0,false,Rx,0,8,00,6B,15,08,00,F7,FF,21,
21425843,000002A0,false,Rx,0,8,00,6C,16,08,00,F7,FF,21,
21437383,00000312,false,Rx,0,8,00,10,88,70,00,FF,00,08,
21437638,00000422,false,Rx,0,8,00,00,00,00,00,00,00,67,
21438551,000003F3,false,Rx,0,8,7C,24,07,11,F7,FF,08,00,
21438786,000002A0,false,Rx,0,8,00,62,0C,08,00,F7,FF,21,
21440376,000002A0,false,Rx,0,8,00,63,0D,08,00,F7,FF,21,
21442195,000002A0,false,Rx,0,8,00,64,0E,08,00,F7,FF,21,
21444014,000002A0,false,Rx,0,8,00,65,0F,08,00,F7,FF,21,
21445842,000002A0,false,Rx,0,8,00,66,10,08,00,F7,FF,21,
21457487,00000312,false,Rx,0,8,00,10,88,71,00,FF,00,09,
21458648,000003F3,false,Rx,0,8,7C,24,08,12,F7,FF,08,00,
21458884,000002A0,false,Rx,0,8,00,67,11,08,00,F7,FF,21,
21460483,000002A0,false,Rx,0,8,00,68,12,08,00,F7,FF,21,
21462290,000002A0,false,Rx,0,8,00,69,13,08,00,F7,FF,21,
21464118,000002A0,false,Rx,0,8,00,6A,14,08,00,F7,FF,21,
21465937,000002A0,false,Rx,0,8,00,6B,15,08,00,F7,FF,21,
21467304,00000422,false,Rx,0,8,00,00,00,00,00,00,00,67,
21477352,00000312,false,Rx,0,8,00,10,88,72,00,FF,00,0A,
21478515,000003F3,false,Rx,0,8,7C,24,09,13,F7,FF,08,00,
21478751,000002A0,false,Rx,0,8,00,6C,16,08,00,F7,FF,21,
21480338,000002A0,false,Rx,0,8,00,6D,17,08,00,F7,FF,21,
21482157,000002A0,false,Rx,0,8,00,6E,18,08,00,F7,FF,21,
21483985,00000299,false,Rx,0,8,00,00,00,00,00,00,18,74,
21485803,000002A0,false,Rx,0,8,00,60,0A,08,00,F7,FF,21,
21497386,00000312,false,Rx,0,8,00,10,88,73,00,FF,00,0B,
21497629,00000422,false,Rx,0,8,00,00,00,00,00,00,00,67,
21498542,000003F3,false,Rx,0,8,7C,24,0A,14,F7,FF,08,00,
21498778,000002A0,false,Rx,0,8,00,61,0B,08,00,F7,FF,21,
21500378,000002A0,false,Rx,0,8,00,62,0C,08,00,F7,FF,21,
21502187,000002A0,false,Rx,0,8,00,63,0D,08,00,F7,FF,21,
21504015,000002A0,false,Rx,0,8,00,64,0E,08,00,F7,FF,21,
21505834,000002A0,false,Rx,0,8,00,65,0F,08,00,F7,FF,21,
21517427,00000312,false,Rx,0,8,00,10,88,74,00,FF,00,0C,
21518589,000003F3,false,Rx,0,8,7C,24,0B,15,F7,FF,08,00,
21518825,000002A0,false,Rx,0,8,00,66,10,08,00,F7,FF,21,
21520413,000002A0,false,Rx,0,8,00,67,11,08,00,F7,FF,21,
21522231,000002A0,false,Rx,0,8,00,68,12,08,00,F7,FF,21,
21524049,000002A0,false,Rx,0,8,00,69,13,08,00,F7,FF,21,
21525878,000002A0,false,Rx,0,8,00,6A,14,08,00,F7,FF,21,
21527398,00000422,false,Rx,0,8,00,00,00,00,00,00,00,67,
21537375,00000312,false,Rx,0,8,00,10,88,75,00,FF,00,0D,
21538537,000003F3,false,Rx,0,8,7C,24,0C,16,F7,FF,08,00,
21538773,000002A0,false,Rx,0,8,00,6B,15,08,00,F7,FF,21,
21540373,000002A0,false,Rx,0,8,00,6C,16,08,00,F7,FF,21,
21542181,000002A0,false,Rx,0,8,00,6D,17,08,00,F7,FF,21,
21544009,000002A0,false,Rx,0,8,00,6E,18,08,00,F7,FF,21,
21545829,00000299,false,Rx,0,8,00,00,00,00,00,00,18,74,
21557399,00000312,false,Rx,0,8,00,10,88,76,00,FF,00,0E,
21557652,00000422,false,Rx,0,8,00,00,00,00,00,00,00,67,
21558565,000003F3,false,Rx,0,8,7C,24,0D,17,F7,FF,08,00,
21558802,000002A0,false,Rx,0,8,00,60,0A,08,00,F7,FF,21,
21560383,000002A0,false,Rx,0,8,00,61,0B,08,00,F7,FF,21,
21562211,000002A0,false,Rx,0,8,00,62,0C,08,00,F7,FF,21,
21564029,000002A0,false,Rx,0,8,00,63,0D,08,00,F7,FF,21,
21565858,000002A0,false,Rx,0,8,00,64,0E,08,00,F7,FF,21,
21577379,00000312,false,Rx,0,8,00,10,88,77,00,FF,00,0F,
21578541,000003F3,false,Rx,0,8,7C,24,0E,18,F7,FF,08,00,
21578778,000002A0,false,Rx,0,8,00,65,0F,08,00,F7,FF,21,
21580365,000002A0,false,Rx,0,8,00,66,10,08,00,F7,FF,21,
21582183,000002A0,false,Rx,0,8,00,67,11,08,00,F7,FF,21,
21584011,000002A0,false,Rx,0,8,00,68,12,08,00,F7,FF,21,
21585830,000002A0,false,Rx,0,8,00,69,13,08,00,F7,FF,21,
21587429,00000422,false,Rx,0,8,00,00,00,00,00,00,00,67,
21597379,00000312,false,Rx,0,8,00,10,88,78,00,FF,00,10,
21598541,000003F3,false,Rx,0,8,7C,24,00,0A,F7,FF,08,00,
21598778,000002A0,false,Rx,0,8,00,6A,14,08,00,F7,FF,21,
21600365,000002A0,false,Rx,0,8,00,6B,15,08,00,F7,FF,21,
21602193,000002A0,false,Rx,0,8,00,6C,16,08,00,F7,FF,21,
21604011,000002A0,false,Rx,0,8,00,6D,17,08,00,F7,FF,21,
21605830,000002A0,false,Rx,0,8,00,6E,18,08,00,F7,FF,21,
21617351,00000312,false,Rx,0,8,00,10,88,79,00,FF,00,11,
21617594,00000422,false,Rx,0,8,00,00,00,00,00,00,00,67,
21618507,000003F3,false,Rx,0,8,7C,24,01,0B,F7,FF,08,00,
21618754,00000299,false,Rx,0,8,00,00,00,00,00,00,18,74,
21620334,000002A0,false,Rx,0,8,00,60,0A,08,00,F7,FF,21,
21622152,000002A0,false,Rx,0,8,00,61,0B,08,00,F7,FF,21,
21623980,000002A0,false,Rx,0,8,00,62,0C,08,00,F7,FF,21,
21625799,000002A0,false,Rx,0,8,00,63,0D,08,00,F7,FF,21,
21637361,00000312,false,Rx,0,8,00,10,88,7A,00,FF,00,12,
21638524,000003F3,false,Rx,0,8,7C,24,02,0C,F7,FF,08,00,
21638761,000002A0,false,Rx,0,8,00,64,0E,08,00,F7,FF,21,
21640349,000002A0,false,Rx,0,8,00,65,0F,08,00,F7,FF,21,
21642167,000002A0,false,Rx,0,8,00,66,10,08,00,F7,FF,21,
21643995,000002A0,false,Rx,0,8,00,67,11,08,00,F7,FF,21,
21645814,000002A0,false,Rx,0,8,00,68,12,08,00,F7,FF,21,
21647434,00000422,false,Rx,0,8,00,00,00,00,00,00,00,67,
21657373,00000312,false,Rx,0,8,00,10,88,7B,00,FF,00,13,
21658535,000003F3,false,Rx,0,8,7C,24,03,0D,F7,FF,08,00,
21658772,000002A0,false,Rx,0,8,00,69,13,08,00,F7,FF,21,
21660360,000002A0,false,Rx,0,8,00,6A,14,08,00,F7,FF,21,
21662188,000002A0,false,Rx,0,8,00,6B,15,08,00,F7,FF,21,
21664007,000002A0,false,Rx,0,8,00,6C,16,08,00,F7,FF,21,
21665825,000002A0,false,Rx,0,8,00,6D,17,08,00,F7,FF,21,
21677387,00000312,false,Rx,0,8,00,10,88,7C,00,FF,00,14,
21677630,00000422,false,Rx,0,8,00,00,00,00,00,00,00,67,
21678543,000003F3,false,Rx,0,8,7C,24,04,0E,F7,FF,08,00,
21678780,000002A0,false,Rx,0,8,00,6E,18,08,00,F7,FF,21,
21680380,00000299,false,Rx,0,8,00,00,00,00,00,00,18,74,
21682198,000002A0,false,Rx,0,8,00,60,0A,08,00,F7,FF,21,
21684017,000002A0,false,Rx,0,8,00,61,0B,08,00,F7,FF,21,
21685835,000002A0,false,Rx,0,8,00,62,0C,08,00,F7,FF,21,
21697387,00000312,false,Rx,0,8,00,10,88,7D,00,FF,00,15,
21698549,000003F3,false,Rx,0,8,7C,24,05,0F,F7,FF,08,00,
21698786,000002A0,false,Rx,0,8,00,63,0D,08,00,F7,FF,21,
21700373,000002A0,false,Rx,0,8,00,64,0E,08,00,F7,FF,21,
21702191,000002A0,false,Rx,0,8,00,65,0F,08,00,F7,FF,21,
21704011,000002A0,false,Rx,0,8,00,66,10,08,00,F7,FF,21,
21705839,000002A0,false,Rx,0,8,00,67,11,08,00,F7,FF,21,
21707388,00000422,false,Rx,0,8,00,00,00,00,00,00,00,67,
21717427,00000312,false,Rx,0,8,00,10,88,7E,00,FF,00,16,
21718580,000003F3,false,Rx,0,8,7C,24,06,10,F7,FF,08,00,
21718826,000002A0,false,Rx,0,8,00,68,12,08,00,F7,FF,21,
21720404,000002A0,false,Rx,0,8,00,69,13,08,00,F7,FF,21,
21722232,000002A0,false,Rx,0,8,00,6A,14,08,00,F7,FF,21,
21724052,000002A0,false,Rx,0,8,00,6B,15,08,00,F7,FF,21,
21725880,000002A0,false,Rx,0,8,00,6C,16,08,00,F7,FF,21,
21737390,00000312,false,Rx,0,8,00,10,88,70,00,FF,00,08,
21737633,00000422,false,Rx,0,8,00,00,00,00,00,00,00,67,
21738547,000003F3,false,Rx,0,8,7C,24,07,11,F7,FF,08,00,
21738783,000002A0,false,Rx,0,8,00,62,0C,08,00,F7,FF,21,
21740372,000002A0,false,Rx,0,8,00,63,0D,08,00,F7,FF,21,
21742201,000002A0,false,Rx,0,8,00,64,0E,08,00,F7,FF,21,
21744010,000002A0,false,Rx,0,8,00,65,0F,08,00,F7,FF,21,
21745838,000002A0,false,Rx,0,8,00,66,10,08,00,F7,FF,21,
21757379,00000312,false,Rx,0,8,00,10,88,71,00,FF,00,09,
21758543,000003F3,false,Rx,0,8,7C,24,08,12,F7,FF,08,00,
21758779,000002A0,false,Rx,0,8,00,67,11,08,00,F7,FF,21,
21760366,000002A0,false,Rx,0,8,00,68,12,08,00,F7,FF,21,
21762185,000002A0,false,Rx,0,8,00,69,13,08,00,F7,FF,21,
21764014,000002A0,false,Rx,0,8,00,6A,14,08,00,F7,FF,21,
21765833,000002A0,false,Rx,0,8,00,6B,15,08,00,F7,FF,21,
21767392,00000422,false,Rx,0,8,00,00,00,00,00,00,00,67,
21777382,00000312,false,Rx,0,8,00,10,88,72,00,FF,00,0A,
21778545,000003F3,false,Rx,0,8,7C,24,09,13,F7,FF,08,00,
21778791,000002A0,false,Rx,0,8,00,6C,16,08,00,F7,FF,21,
21780368,000002A0,false,Rx,0,8,00,6D,17,08,00,F7,FF,21,
21782196,000002A0,false,Rx,0,8,00,6E,18,08,00,F7,FF,21,
21784016,00000299,false,Rx,0,8,00,00,00,00,00,00,18,74,
21785834,000002A0,false,Rx,0,8,00,60,0A,08,00,F7,FF,21,
21797364,00000312,false,Rx,0,8,00,10,88,73,00,FF,00,0B,
21797617,00000422,false,Rx,0,8,00,00,00,00,00,00,00,67,
21798532,000003F3,false,Rx,0,8,7C,24,0A,14,F7,FF,08,00,
21798768,000002A0,false,Rx,0,8,00,61,0B,08,00,F7,FF,21,
21800357,000002A0,false,Rx,0,8,00,62,0C,08,00,F7,FF,21,
21802175,000002A0,false,Rx,0,8,00,63,0D,08,00,F7,FF,21,
21804004,000002A0,false,Rx,0,8,00,64,0E,08,00,F7,FF,21,
21805823,000002A0,false,Rx,0,8,00,65,0F,08,00,F7,FF,21,
21817435,00000312,false,Rx,0,8,00,10,88,74,00,FF,00,0C,
21818598,000003F3,false,Rx,0,8,7C,24,0B,15,F7,FF,08,00,
21818834,000002A0,false,Rx,0,8,00,66,10,08,00,F7,FF,21,
21820421,000002A0,false,Rx,0,8,00,67,11,08,00,F7,FF,21,
21822241,000002A0,false,Rx,0,8,00,68,12,08,00,F7,FF,21,
21824060,000002A0,false,Rx,0,8,00,69,13,08,00,F7,FF,21,
21825888,000002A0,false,Rx,0,8,00,6A,14,08,00,F7,FF,21,
21827396,00000422,false,Rx,0,8,00,00,00,00,00,00,00,67,
21837374,00000312,false,Rx,0,8,00,10,88,75,00,FF,00,0D,
21838537,000003F3,false,Rx,0,8,7C,24,0C,16,F7,FF,08,00,
21838773,000002A0,false,Rx,0,8,00,6B,15,08,00,F7,FF,21,
21840370,000002A0,false,Rx,0,8,00,6C,16,08,00,F7,FF,21,
21842179,000002A0,false,Rx,0,8,00,6D,17,08,00,F7,FF,21,
21844007,000002A0,false,Rx,0,8,00,6E,18,08,00,F7,FF,21,
21845836,00000299,false,Rx,0,8,00,00,00,00,00,00,18,74,
21857377,00000312,false,Rx,0,8,00,10,88,76,00,FF,00,0E,
21857622,00000422,false,Rx,0,8,00,00,00,00,00,00,00,67,
21858545,000003F3,false,Rx,0,8,7C,24,0D,17,F7,FF,08,00,
21858781,000002A0,false,Rx,0,8,00,60,0A,08,00,F7,FF,21,
21860361,000002A0,false,Rx,0,8,00,61,0B,08,00,F7,FF,21,
21862190,000002A0,false,Rx,0,8,00,62,0C,08,00,F7,FF,21,
21864009,000002A0,false,Rx,0,8,00,63,0D,08,00,F7,FF,21,
21865837,000002A0,false,Rx,0,8,00,64,0E,08,00,F7,FF,21,
21877513,00000312,false,Rx,0,8,00,10,88,77,00,FF,00,0F,
21878675,000003F3,false,Rx,0,8,7C,24,0E,18,F7,FF,08,00,
21878911,000002A0,false,Rx,0,8,00,65,0F,08,00,F7,FF,21,
21880499,000002A0,false,Rx,0,8,00,66,10,08,00,F7,FF,21,
21882328,000002A0,false,Rx,0,8,00,67,11,08,00,F7,FF,21,
21884145,000002A0,false,Rx,0,8,00,68,12,08,00,F7,FF,21,
21885965,000002A0,false,Rx,0,8,00,69,13,08,00,F7,FF,21,
21887411,00000422,false,Rx,0,8,00,00,00,00,00,00,00,67,
21897379,00000312,false,Rx,0,8,00,10,88,78,00,FF,00,10,
21898542,000003F3,false,Rx,0,8,7C,24,00,0A,F7,FF,08,00,
21898778,000002A0,false,Rx,0,8,00,6A,14,08,00,F7,FF,21,
21900366,000002A0,false,Rx,0,8,00,6B,15,08,00,F7,FF,21,
21902195,000002A0,false,Rx,0,8,00,6C,16,08,00,F7,FF,21,
21904003,000002A0,false,Rx,0,8,00,6D,17,08,00,F7,FF,21,
21905831,000002A0,false,Rx,0,8,00,6E,18,08,00,F7,FF,21,
21917422,00000312,false,Rx,0,8,00,10,88,79,00,FF,00,11,
21917667,00000422,false,Rx,0,8,00,00,00,00,00,00,00,67,
21918589,000003F3,false,Rx,0,8,7C,24,01,0B,F7,FF,08,00,
21918825,00000299,false,Rx,0,8,00,00,00,00,00,00,18,74,
21920415,000002A0,false,Rx,0,8,00,60,0A,08,00,F7,FF,21,
21922234,000002A0,false,Rx,0,8,00,61,0B,08,00,F7,FF,21,
21924052,000002A0,false,Rx,0,8,00,62,0C,08,00,F7,FF,21,
21925870,000002A0,false,Rx,0,8,00,63,0D,08,00,F7,FF,21,
21937339,00000312,false,Rx,0,8,00,10,88,7A,00,FF,00,12,
21938504,000003F3,false,Rx,0,8,7C,24,02,0C,F7,FF,08,00,
21938740,000002A0,false,Rx,0,8,00,64,0E,08,00,F7,FF,21,
21940327,000002A0,false,Rx,0,8,00,65,0F,08,00,F7,FF,21,
21942146,000002A0,false,Rx,0,8,00,66,10,08,00,F7,FF,21,
21943974,000002A0,false,Rx,0,8,00,67,11,08,00,F7,FF,21,
21945792,000002A0,false,Rx,0,8,00,68,12,08,00,F7,FF,21,
21947351,00000422,false,Rx,0,8,00,00,00,00,00,00,00,67,
21957369,00000312,false,Rx,0,8,00,10,88,7B,00,FF,00,13,
21958533,000003F3,false,Rx,0,8,7C,24,03,0D,F7,FF,08,00,
21958768,000002A0,false,Rx,0,8,00,69,13,08,00,F7,FF,21,
21960356,000002A0,false,Rx,0,8,00,6A,14,08,00,F7,FF,21,
21962185,000002A0,false,Rx,0,8,00,6B,15,08,00,F7,FF,21,
21964005,000002A0,false,Rx,0,8,00,6C,16,08,00,F7,FF,21,
21965824,000002A0,false,Rx,0,8,00,6D,17,08,00,F7,FF,21,
21977385,00000312,false,Rx,0,8,00,10,88,7C,00,FF,00,14,
21977628,00000422,false,Rx,0,8,00,00,00,00,00,00,00,67,
21978541,000003F3,false,Rx,0,8,7C,24,04,0E,F7,FF,08,00,
21978777,000002A0,false,Rx,0,8,00,6E,18,08,00,F7,FF,21,
21980377,00000299,false,Rx,0,8,00,00,00,00,00,00,18,74,
21982196,000002A0,false,Rx,0,8,00,60,0A,08,00,F7,FF,21,
21984004,000002A0,false,Rx,0,8,00,61,0B,08,00,F7,FF,21,
21985833,000002A0,false,Rx,0,8,00,62,0C,08,00,F7,FF,21,
21997384,00000312,false,Rx,0,8,00,10,88,7D,00,FF,00,15,
21998546,000003F3,false,Rx,0,8,7C,24,05,0F,F7,FF,08,00,
21998782,000002A0,false,Rx,0,8,00,63,0D,08,00,F7,FF,21,
22000369,000002A0,false,Rx,0,8,00,64,0E,08,00,F7,FF,21,
22002188,000002A0,false,Rx,0,8,00,65,0F,08,00,F7,FF,21,
22004006,000002A0,false,Rx,0,8,00,66,10,08,00,F7,FF,21,
22005836,000002A0,false,Rx,0,8,00,67,11,08,00,F7,FF,21,
22007384,00000422,false,Rx,0,8,00,00,00,00,00,00,00,67,
22017424,00000312,false,Rx,0,8,00,10,88,7E,00,FF,00,16,
22018586,000003F3,false,Rx,0,8,7C,24,06,10,F7,FF,08,00,
22018823,000002A0,false,Rx,0,8,00,68,12,08,00,F7,FF,21,
22020410,000002A0,false,Rx,0,8,00,69,13,08,00,F7,FF,21,
22022228,000002A0,false,Rx,0,8,00,6A,14,08,00,F7,FF,21,
22024056,000002A0,false,Rx,0,8,00,6B,15,08,00,F7,FF,21,
22025875,000002A0,false,Rx,0,8,00,6C,16,08,00,F7,FF,21,
22037386,00000312,false,Rx,0,8,00,10,88,70,00,FF,00,08,
22037630,00000422,false,Rx,0,8,00,00,00,00,00,00,00,67,
22038543,000003F3,false,Rx,0,8,7C,24,07,11,F7,FF,08,00,
22038779,000002A0,false,Rx,0,8,00,62,0C,08,00,F7,FF,21,
22040369,000002A0,false,Rx,0,8,00,63,0D,08,00,F7,FF,21,
22042187,000002A0,false,Rx,0,8,00,64,0E,08,00,F7,FF,21,
22044005,000002A0,false,Rx,0,8,00,65,0F,08,00,F7,FF,21,
22045835,000002A0,false,Rx,0,8,00,66,10,08,00,F7,FF,21,
22057386,00000312,false,Rx,0,8,00,10,88,71,00,FF,00,09,
22058539,000003F3,false,Rx,0,8,7C,24,08,12,F7,FF,08,00,
22058776,000002A0,false,Rx,0,8,00,67,11,08,00,F7,FF,21,
22060374,000002A0,false,Rx,0,8,00,68,12,08,00,F7,FF,21,
22062182,000002A0,false,Rx,0,8,00,69,13,08,00,F7,FF,21,
22064010,000002A0,false,Rx,0,8,00,6A,14,08,00,F7,FF,21,
22065829,000002A0,false,Rx,0,8,00,6B,15,08,00,F7,FF,21,
22067388,00000422,false,Rx,0,8,00,00,00,00,00,00,00,67,
22077376,00000312,false,Rx,0,8,00,10,88,72,00,FF,00,0A,
22078539,000003F3,false,Rx,0,8,7C,24,09,13,F7,FF,08,00,
22078776,000002A0,false,Rx,0,8,00,6C,16,08,00,F7,FF,21,
22080363,000002A0,false,Rx,0,8,00,6D,17,08,00,F7,FF,21,
22082181,000002A0,false,Rx,0,8,00,6E,18,08,00,F7,FF,21,
22084009,00000299,false,Rx,0,8,00,00,00,00,00,00,18,74,
22085828,000002A0,false,Rx,0,8,00,60,0A,08,00,F7,FF,21,
22097338,00000312,false,Rx,0,8,00,10,88,73,00,FF,00,0B,
22097591,00000422,false,Rx,0,8,00,00,00,00,00,00,00,67,
22098504,000003F3,false,Rx,0,8,7C,24,0A,14,F7,FF,08,00,
22098741,000002A0,false,Rx,0,8,00,61,0B,08,00,F7,FF,21,
22100331,000002A0,false,Rx,0,8,00,62,0C,08,00,F7,FF,21,
22102149,000002A0,false,Rx,0,8,00,63,0D,08,00,F7,FF,21,
22103977,000002A0,false,Rx,0,8,00,64,0E,08,00,F7,FF,21,
22105788,000002A0,false,Rx,0,8,00,65,0F,08,00,F7,FF,21,
22117429,00000312,false,Rx,0,8,00,10,88,74,00,FF,00,0C,
22118591,000003F3,false,Rx,0,8,7C,24,0B,15,F7,FF,08,00,
22118828,000002A0,false,Rx,0,8,00,66,10,08,00,F7,FF,21,
22120416,000002A0,false,Rx,0,8,00,67,11,08,00,F7,FF,21,
22122234,000002A0,false,Rx,0,8,00,68,12,08,00,F7,FF,21,
22124054,000002A0,false,Rx,0,8,00,69,13,08,00,F7,FF,21,
22125872,000002A0,false,Rx,0,8,00,6A,14,08,00,F7,FF,21,
22127392,00000422,false,Rx,0,8,00,00,00,00,00,00,00,67,
22137380,00000312,false,Rx,0,8,00,10,88,75,00,FF,00,0D,
22138543,000003F3,false,Rx,0,8,7C,24,0C,16,F7,FF,08,00,
22138780,000002A0,false,Rx,0,8,00,6B,15,08,00,F7,FF,21,
22140367,000002A0,false,Rx,0,8,00,6C,16,08,00,F7,FF,21,
22142186,000002A0,false,Rx,0,8,00,6D,17,08,00,F7,FF,21,
