Time Stamp,ID,Extended,Dir,Bus,LEN,D1,D2,D3,D4,D5,D6,D7,D8
471632,000002A0,false,Rx,0,8,00,64,86,00,80,FF,7F,21,
473450,000002A0,false,Rx,0,8,00,65,87,00,80,FF,7F,21,
484941,00000312,false,Rx,0,8,00,10,8F,04,00,FF,00,05,
485193,000003F3,false,Rx,0,8,5C,66,09,8B,FF,7F,00,80,
486107,000003F3,false,Rx,0,8,5C,66,0A,8C,FF,7F,00,80,
486343,000002A0,false,Rx,0,8,00,66,88,00,80,FF,7F,21,
487934,000002A0,false,Rx,0,8,00,67,89,00,80,FF,7F,21,
489751,000002A0,false,Rx,0,8,00,68,8A,00,80,FF,7F,21,
491580,000002A0,false,Rx,0,8,00,69,8B,00,80,FF,7F,21,
493399,000002A0,false,Rx,0,8,00,6A,8C,00,80,FF,7F,21,
494979,00000422,false,Rx,0,8,00,00,00,00,00,00,00,67,
504865,00000312,false,Rx,0,8,00,10,8F,05,00,FF,00,06,
505117,000003F3,false,Rx,0,8,5C,66,0B,8D,FF,7F,00,80,
506021,000003F3,false,Rx,0,8,5C,66,0C,8E,FF,7F,00,80,
506267,000002A0,false,Rx,0,8,00,6B,8D,00,80,FF,7F,21,
507858,000002A0,false,Rx,0,8,00,6C,8E,00,80,FF,7F,21,
509676,000002A0,false,Rx,0,8,00,6D,8F,00,80,FF,7F,21,
511495,000002A0,false,Rx,0,8,00,6E,90,00,80,FF,7F,21,
513323,00000299,false,Rx,0,8,00,00,00,00,00,00,18,74,
524997,00000312,false,Rx,0,8,00,10,8F,06,00,FF,00,07,
525240,00000422,false,Rx,0,8,00,00,00,00,00,00,00,67,
525475,000003F3,false,Rx,0,8,5C,66,0D,8F,FF,7F,00,80,
526147,000003F3,false,Rx,0,8,5C,66,0E,90,FF,7F,00,80,
526393,000002A0,false,Rx,0,8,00,60,82,00,80,FF,7F,21,
527985,000002A0,false,Rx,0,8,00,61,83,00,80,FF,7F,21,
529804,000002A0,false,Rx,0,8,00,62,84,00,80,FF,7F,21,
531632,000002A0,false,Rx,0,8,00,63,85,00,80,FF,7F,21,
533450,000002A0,false,Rx,0,8,00,64,86,00,80,FF,7F,21,
544952,00000312,false,Rx,0,8,00,10,8F,07,00,FF,00,08,
545195,000003F3,false,Rx,0,8,5C,66,00,82,FF,7F,00,80,
546108,000003F3,false,Rx,0,8,5C,66,01,83,FF,7F,00,80,
546344,000002A0,false,Rx,0,8,00,65,87,00,80,FF,7F,21,
547944,000002A0,false,Rx,0,8,00,66,88,00,80,FF,7F,21,
549763,000002A0,false,Rx,0,8,00,67,89,00,80,FF,7F,21,
551581,000002A0,false,Rx,0,8,00,68,8A,00,80,FF,7F,21,
553409,000002A0,false,Rx,0,8,00,69,8B,00,80,FF,7F,21,
554959,00000422,false,Rx,0,8,00,00,00,00,00,00,00,67,
564946,00000312,false,Rx,0,8,00,10,8F,08,00,FF,00,09,
566098,000003F3,false,Rx,0,8,5C,66,04,86,FF,7F,00,80,
566344,000002A0,false,Rx,0,8,00,6A,8C,00,80,FF,7F,21,
567933,000002A0,false,Rx,0,8,00,6B,8D,00,80,FF,7F,21,
569753,000002A0,false,Rx,0,8,00,6C,8E,00,80,FF,7F,21,
571571,000002A0,false,Rx,0,8,00,6D,8F,00,80,FF,7F,21,
573399,000002A0,false,Rx,0,8,00,6E,90,00,80,FF,7F,21,
584942,00000312,false,Rx,0,8,00,10,8F,09,00,FF,00,0A,
585195,00000422,false,Rx,0,8,00,00,00,00,00,00,00,67,
585431,000003F3,false,Rx,0,8,5C,66,05,87,FF,7F,00,80,
586102,000003F3,false,Rx,0,8,5C,66,06,88,FF,7F,00,80,
586348,00000299,false,Rx,0,8,00,00,00,00,00,00,18,74,
587940,000002A0,false,Rx,0,8,00,60,82,00,80,FF,7F,21,
589758,000002A0,false,Rx,0,8,00,61,83,00,80,FF,7F,21,
591587,000002A0,false,Rx,0,8,00,62,84,00,80,FF,7F,21,
593405,000002A0,false,Rx,0,8,00,63,85,00,80,FF,7F,21,
604947,00000312,false,Rx,0,8,00,10,8F,0A,00,FF,00,0B,
605190,000003F3,false,Rx,0,8,5C,66,07,89,FF,7F,00,80,
606104,000003F3,false,Rx,0,8,5C,66,08,8A,FF,7F,00,80,
606340,000002A0,false,Rx,0,8,00,64,86,00,80,FF,7F,21,
607940,000002A0,false,Rx,0,8,00,65,87,00,80,FF,7F,21,
609758,000002A0,false,Rx,0,8,00,66,88,00,80,FF,7F,21,
611576,000002A0,false,Rx,0,8,00,67,89,00,80,FF,7F,21,
613404,000002A0,false,Rx,0,8,00,68,8A,00,80,FF,7F,21,
614954,00000422,false,Rx,0,8,00,00,00,00,00,00,00,67,
624996,00000312,false,Rx,0,8,00,10,8F,0B,00,FF,00,0C,
625238,000003F3,false,Rx,0,8,5C,66,09,8B,FF,7F,00,80,
626151,000003F3,false,Rx,0,8,5C,66,0A,8C,FF,7F,00,80,
626386,000002A0,false,Rx,0,8,00,69,8B,00,80,FF,7F,21,
627987,000002A0,false,Rx,0,8,00,6A,8C,00,80,FF,7F,21,
629805,000002A0,false,Rx,0,8,00,6B,8D,00,80,FF,7F,21,
631623,000002A0,false,Rx,0,8,00,6C,8E,00,80,FF,7F,21,
633452,000002A0,false,Rx,0,8,00,6D,8F,00,80,FF,7F,21,
644944,00000312,false,Rx,0,8,00,10,8F,0C,00,FF,00,0D,
645187,00000422,false,Rx,0,8,00,00,00,00,00,00,00,67,
645423,000003F3,false,Rx,0,8,5C,66,0B,8D,FF,7F,00,80,
646104,000003F3,false,Rx,0,8,5C,66,0C,8E,FF,7F,00,80,
646340,000002A0,false,Rx,0,8,00,6E,90,00,80,FF,7F,21,
647933,00000299,false,Rx,0,8,00,00,00,00,00,00,18,74,
649761,000002A0,false,Rx,0,8,00,60,82,00,80,FF,7F,21,
651580,000002A0,false,Rx,0,8,00,61,83,00,80,FF,7F,21,
653398,000002A0,false,Rx,0,8,00,62,84,00,80,FF,7F,21,
664868,00000312,false,Rx,0,8,00,10,8F,0D,00,FF,00,0E,
665111,000003F3,false,Rx,0,8,5C,66,0D,8F,FF,7F,00,80,
666024,000003F3,false,Rx,0,8,5C,66,0E,90,FF,7F,00,80,
666260,000002A0,false,Rx,0,8,00,63,85,00,80,FF,7F,21,
667850,000002A0,false,Rx,0,8,00,64,86,00,80,FF,7F,21,
669679,000002A0,false,Rx,0,8,00,65,87,00,80,FF,7F,21,
671497,000002A0,false,Rx,0,8,00,66,88,00,80,FF,7F,21,
673325,000002A0,false,Rx,0,8,00,67,89,00,80,FF,7F,21,
674937,00000422,false,Rx,0,8,00,00,00,00,00,00,00,67,
684945,00000312,false,Rx,0,8,00,10,8F,0E,00,FF,00,0F,
685198,000003F3,false,Rx,0,8,5C,66,00,82,FF,7F,00,80,
686111,000003F3,false,Rx,0,8,5C,66,01,83,FF,7F,00,80,
686346,000002A0,false,Rx,0,8,00,68,8A,00,80,FF,7F,21,
687938,000002A0,false,Rx,0,8,00,69,8B,00,80,FF,7F,21,
689756,000002A0,false,Rx,0,8,00,6A,8C,00,80,FF,7F,21,
691584,000002A0,false,Rx,0,8,00,6B,8D,00,80,FF,7F,21,
693404,000002A0,false,Rx,0,8,00,6C,8E,00,80,FF,7F,21,
704956,00000312,false,Rx,0,8,00,10,8F,00,00,FF,00,01,
705197,00000422,false,Rx,0,8,00,00,00,00,00,00,00,67,
705443,000002A0,false,Rx,0,8,00,62,84,00,80,FF,7F,21,
707021,000002A0,false,Rx,0,8,00,63,85,00,80,FF,7F,21,
708844,000002A0,false,Rx,0,8,00,64,86,00,80,FF,7F,21,
710665,000002A0,false,Rx,0,8,00,65,87,00,80,FF,7F,21,
712494,000002A0,false,Rx,0,8,00,66,88,00,80,FF,7F,21,
724989,00000312,false,Rx,0,8,00,10,8F,01,00,FF,00,02,
725241,000003F3,false,Rx,0,8,5C,66,01,83,FF,7F,00,80,
726144,000003F3,false,Rx,0,8,5C,66,04,86,FF,7F,00,80,
726381,000002A0,false,Rx,0,8,00,67,89,00,80,FF,7F,21,
727972,000002A0,false,Rx,0,8,00,68,8A,00,80,FF,7F,21,
729799,000002A0,false,Rx,0,8,00,69,8B,00,80,FF,7F,21,
731627,000002A0,false,Rx,0,8,00,6A,8C,00,80,FF,7F,21,
733446,000002A0,false,Rx,0,8,00,6B,8D,00,80,FF,7F,21,
734956,00000422,false,Rx,0,8,00,00,00,00,00,00,00,67,
744945,00000312,false,Rx,0,8,00,10,8F,02,00,FF,00,03,
745197,000003F3,false,Rx,0,8,5C,66,05,87,FF,7F,00,80,
746110,000003F3,false,Rx,0,8,5C,66,06,88,FF,7F,00,80,
746348,000002A0,false,Rx,0,8,00,6C,8E,00,80,FF,7F,21,
747939,000002A0,false,Rx,0,8,00,6D,8F,00,80,FF,7F,21,
749766,000002A0,false,Rx,0,8,00,6E,90,00,80,FF,7F,21,
751585,00000299,false,Rx,0,8,00,00,00,00,00,00,18,74,
753414,000002A0,false,Rx,0,8,00,60,82,00,80,FF,7F,21,
764977,00000312,false,Rx,0,8,00,10,8F,03,00,FF,00,04,
765229,00000422,false,Rx,0,8,00,00,00,00,00,00,00,67,
765464,000003F3,false,Rx,0,8,5C,66,07,89,FF,7F,00,80,
766136,000003F3,false,Rx,0,8,5C,66,08,8A,FF,7F,00,80,
766383,000002A0,false,Rx,0,8,00,61,83,00,80,FF,7F,21,
767977,000002A0,false,Rx,0,8,00,62,84,00,80,FF,7F,21,
769794,000002A0,false,Rx,0,8,00,63,85,00,80,FF,7F,21,
771612,000002A0,false,Rx,0,8,00,64,86,00,80,FF,7F,21,
773431,000002A0,false,Rx,0,8,00,65,87,00,80,FF,7F,21,
784943,00000312,false,Rx,0,8,00,10,8F,04,00,FF,00,05,
785195,000003F3,false,Rx,0,8,5C,66,09,8B,FF,7F,00,80,
786108,000003F3,false,Rx,0,8,5C,66,0A,8C,FF,7F,00,80,
786345,000002A0,false,Rx,0,8,00,66,88,00,80,FF,7F,21,
787936,000002A0,false,Rx,0,8,00,67,89,00,80,FF,7F,21,
789753,000002A0,false,Rx,0,8,00,68,8A,00,80,FF,7F,21,
791581,000002A0,false,Rx,0,8,00,69,8B,00,80,FF,7F,21,
793400,000002A0,false,Rx,0,8,00,6A,8C,00,80,FF,7F,21,
795000,00000422,false,Rx,0,8,00,00,00,00,00,00,00,67,
804970,00000312,false,Rx,0,8,00,10,8F,05,00,FF,00,06,
805222,000003F3,false,Rx,0,8,5C,66,0B,8D,FF,7F,00,80,
806125,000003F3,false,Rx,0,8,5C,66,0C,8E,FF,7F,00,80,
806372,000002A0,false,Rx,0,8,00,6B,8D,00,80,FF,7F,21,
807963,000002A0,false,Rx,0,8,00,6C,8E,00,80,FF,7F,21,
809780,000002A0,false,Rx,0,8,00,6D,8F,00,80,FF,7F,21,
811609,000002A0,false,Rx,0,8,00,6E,90,00,80,FF,7F,21,
813429,00000299,false,Rx,0,8,00,00,00,00,00,00,18,74,
824922,00000312,false,Rx,0,8,00,10,8F,06,00,FF,00,07,
825164,00000422,false,Rx,0,8,00,00,00,00,00,00,00,67,
825400,000003F3,false,Rx,0,8,5C,66,0D,8F,FF,7F,00,80,
826081,000003F3,false,Rx,0,8,5C,66,0E,90,FF,7F,00,80,
826318,000002A0,false,Rx,0,8,00,60,82,00,80,FF,7F,21,
827911,000002A0,false,Rx,0,8,00,61,83,00,80,FF,7F,21,
829728,000002A0,false,Rx,0,8,00,62,84,00,80,FF,7F,21,
831556,000002A0,false,Rx,0,8,00,63,85,00,80,FF,7F,21,
833375,000002A0,false,Rx,0,8,00,64,86,00,80,FF,7F,21,
844947,00000312,false,Rx,0,8,00,10,8F,07,00,FF,00,08,
845199,000003F3,false,Rx,0,8,5C,66,00,82,FF,7F,00,80,
846112,000003F3,false,Rx,0,8,5C,66,01,83,FF,7F,00,80,
846349,000002A0,false,Rx,0,8,00,65,87,00,80,FF,7F,21,
847940,000002A0,false,Rx,0,8,00,66,88,00,80,FF,7F,21,
849757,000002A0,false,Rx,0,8,00,67,89,00,80,FF,7F,21,
851586,000002A0,false,Rx,0,8,00,68,8A,00,80,FF,7F,21,
853404,000002A0,false,Rx,0,8,00,69,8B,00,80,FF,7F,21,
854953,00000422,false,Rx,0,8,00,00,00,00,00,00,00,67,
864941,00000312,false,Rx,0,8,00,10,8F,08,00,FF,00,09,
866102,000003F3,false,Rx,0,8,5C,66,04,86,FF,7F,00,80,
866339,000002A0,false,Rx,0,8,00,6A,8C,00,80,FF,7F,21,
867928,000002A0,false,Rx,0,8,00,6B,8D,00,80,FF,7F,21,
869755,000002A0,false,Rx,0,8,00,6C,8E,00,80,FF,7F,21,
871575,000002A0,false,Rx,0,8,00,6D,8F,00,80,FF,7F,21,
873394,000002A0,false,Rx,0,8,00,6E,90,00,80,FF,7F,21,
884946,00000312,false,Rx,0,8,00,10,8F,09,00,FF,00,0A,
885188,00000422,false,Rx,0,8,00,00,00,00,00,00,00,67,
885425,000003F3,false,Rx,0,8,5C,66,05,87,FF,7F,00,80,
886105,000003F3,false,Rx,0,8,5C,66,06,88,FF,7F,00,80,
886352,00000299,false,Rx,0,8,00,00,00,00,00,00,18,74,
887945,000002A0,false,Rx,0,8,00,60,82,00,80,FF,7F,21,
889762,000002A0,false,Rx,0,8,00,61,83,00,80,FF,7F,21,
891581,000002A0,false,Rx,0,8,00,62,84,00,80,FF,7F,21,
893399,000002A0,false,Rx,0,8,00,63,85,00,80,FF,7F,21,
904941,00000312,false,Rx,0,8,00,10,8F,0A,00,FF,00,0B,
905193,000003F3,false,Rx,0,8,5C,66,07,89,FF,7F,00,80,
906107,000003F3,false,Rx,0,8,5C,66,08,8A,FF,7F,00,80,
906343,000002A0,false,Rx,0,8,00,64,86,00,80,FF,7F,21,
907934,000002A0,false,Rx,0,8,00,65,87,00,80,FF,7F,21,
909761,000002A0,false,Rx,0,8,00,66,88,00,80,FF,7F,21,
911581,000002A0,false,Rx,0,8,00,67,89,00,80,FF,7F,21,
913399,000002A0,false,Rx,0,8,00,68,8A,00,80,FF,7F,21,
914959,00000422,false,Rx,0,8,00,00,00,00,00,00,00,67,
924987,00000312,false,Rx,0,8,00,10,8F,0B,00,FF,00,0C,
925239,000003F3,false,Rx,0,8,5C,66,09,8B,FF,7F,00,80,
926153,000003F3,false,Rx,0,8,5C,66,0A,8C,FF,7F,00,80,
926389,000002A0,false,Rx,0,8,00,69,8B,00,80,FF,7F,21,
927980,000002A0,false,Rx,0,8,00,6A,8C,00,80,FF,7F,21,
929807,000002A0,false,Rx,0,8,00,6B,8D,00,80,FF,7F,21,
931626,000002A0,false,Rx,0,8,00,6C,8E,00,80,FF,7F,21,
933444,000002A0,false,Rx,0,8,00,6D,8F,00,80,FF,7F,21,
944946,00000312,false,Rx,0,8,00,10,8F,0C,00,FF,00,0D,
945199,00000422,false,Rx,0,8,00,00,00,00,00,00,00,67,
945436,000003F3,false,Rx,0,8,5C,66,0B,8D,FF,7F,00,80,
946107,000003F3,false,Rx,0,8,5C,66,0C,8E,FF,7F,00,80,
946353,000002A0,false,Rx,0,8,00,6E,90,00,80,FF,7F,21,
947946,00000299,false,Rx,0,8,00,00,00,00,00,00,18,74,
949762,000002A0,false,Rx,0,8,00,60,82,00,80,FF,7F,21,
951592,000002A0,false,Rx,0,8,00,61,83,00,80,FF,7F,21,
953410,000002A0,false,Rx,0,8,00,62,84,00,80,FF,7F,21,
964972,00000312,false,Rx,0,8,00,10,8F,0D,00,FF,00,0E,
965214,000003F3,false,Rx,0,8,5C,66,0D,8F,FF,7F,00,80,
966128,000003F3,false,Rx,0,8,5C,66,0E,90,FF,7F,00,80,
966364,000002A0,false,Rx,0,8,00,63,85,00,80,FF,7F,21,
967954,000002A0,false,Rx,0,8,00,64,86,00,80,FF,7F,21,
969781,000002A0,false,Rx,0,8,00,65,87,00,80,FF,7F,21,
971601,000002A0,false,Rx,0,8,00,66,88,00,80,FF,7F,21,
973429,000002A0,false,Rx,0,8,00,67,89,00,80,FF,7F,21,
974918,00000422,false,Rx,0,8,00,00,00,00,00,00,00,67,
984916,00000312,false,Rx,0,8,00,10,8F,0E,00,FF,00,0F,
985168,000003F3,false,Rx,0,8,5C,66,00,82,FF,7F,00,80,
986083,000003F3,false,Rx,0,8,5C,66,01,83,FF,7F,00,80,
986318,000002A0,false,Rx,0,8,00,68,8A,00,80,FF,7F,21,
987909,000002A0,false,Rx,0,8,00,69,8B,00,80,FF,7F,21,
989736,000002A0,false,Rx,0,8,00,6A,8C,00,80,FF,7F,21,
991555,000002A0,false,Rx,0,8,00,6B,8D,00,80,FF,7F,21,
993373,000002A0,false,Rx,0,8,00,6C,8E,00,80,FF,7F,21,
1004956,00000312,false,Rx,0,8,00,10,8F,00,00,FF,00,01,
1005200,00000422,false,Rx,0,8,00,00,00,00,00,00,00,67,
1005435,000002A0,false,Rx,0,8,00,62,84,00,80,FF,7F,21,
1007024,000002A0,false,Rx,0,8,00,63,85,00,80,FF,7F,21,
1008845,000002A0,false,Rx,0,8,00,64,86,00,80,FF,7F,21,
1010666,000002A0,false,Rx,0,8,00,65,87,00,80,FF,7F,21,
1012494,000002A0,false,Rx,0,8,00,66,88,00,80,FF,7F,21,
1024986,00000312,false,Rx,0,8,00,10,8F,01,00,FF,00,02,
1025240,000003F3,false,Rx,0,8,5C,66,01,83,FF,7F,00,80,
1026143,000003F3,false,Rx,0,8,5C,66,04,86,FF,7F,00,80,
1026388,000002A0,false,Rx,0,8,00,67,89,00,80,FF,7F,21,
1027979,000002A0,false,Rx,0,8,00,68,8A,00,80,FF,7F,21,
1029798,000002A0,false,Rx,0,8,00,69,8B,00,80,FF,7F,21,
1031626,000002A0,false,Rx,0,8,00,6A,8C,00,80,FF,7F,21,
1033444,000002A0,false,Rx,0,8,00,6B,8D,00,80,FF,7F,21,
1034953,00000422,false,Rx,0,8,00,00,00,00,00,00,00,67,
1044951,00000312,false,Rx,0,8,00,10,8F,02,00,FF,00,03,
1045195,000003F3,false,Rx,0,8,5C,66,05,87,FF,7F,00,80,
1046108,000003F3,false,Rx,0,8,5C,66,06,88,FF,7F,00,80,
1046343,000002A0,false,Rx,0,8,00,6C,8E,00,80,FF,7F,21,
1047934,000002A0,false,Rx,0,8,00,6D,8F,00,80,FF,7F,21,
1049762,000002A0,false,Rx,0,8,00,6E,90,00,80,FF,7F,21,
1051590,00000299,false,Rx,0,8,00,00,00,00,00,00,18,74,
1053408,000002A0,false,Rx,0,8,00,60,82,00,80,FF,7F,21,
1064951,00000312,false,Rx,0,8,00,10,8F,03,00,FF,00,04,
1065195,00000422,false,Rx,0,8,00,00,00,00,00,00,00,67,
1065430,000003F3,false,Rx,0,8,5C,66,07,89,FF,7F,00,80,
1066112,000003F3,false,Rx,0,8,5C,66,08,8A,FF,7F,00,80,
1066348,000002A0,false,Rx,0,8,00,61,83,00,80,FF,7F,21,
1067940,000002A0,false,Rx,0,8,00,62,84,00,80,FF,7F,21,
1069758,000002A0,false,Rx,0,8,00,63,85,00,80,FF,7F,21,
1071579,000002A0,false,Rx,0,8,00,64,86,00,80,FF,7F,21,
1073397,000002A0,false,Rx,0,8,00,65,87,00,80,FF,7F,21,
1084950,00000312,false,Rx,0,8,00,10,8F,04,00,FF,00,05,
1085193,000003F3,false,Rx,0,8,5C,66,09,8B,FF,7F,00,80,
1086106,000003F3,false,Rx,0,8,5C,66,0A,8C,FF,7F,00,80,
1086342,000002A0,false,Rx,0,8,00,66,88,00,80,FF,7F,21,
1087943,000002A0,false,Rx,0,8,00,67,89,00,80,FF,7F,21,
1089761,000002A0,false,Rx,0,8,00,68,8A,00,80,FF,7F,21,
1091580,000002A0,false,Rx,0,8,00,69,8B,00,80,FF,7F,21,
1093408,000002A0,false,Rx,0,8,00,6A,8C,00,80,FF,7F,21,
1095009,00000422,false,Rx,0,8,00,00,00,00,00,00,00,67,
1104946,00000312,false,Rx,0,8,00,10,8F,05,00,FF,00,06,
1105190,000003F3,false,Rx,0,8,5C,66,0B,8D,FF,7F,00,80,
1106103,000003F3,false,Rx,0,8,5C,66,0C,8E,FF,7F,00,80,
1106339,000002A0,false,Rx,0,8,00,6B,8D,00,80,FF,7F,21,
1107939,000002A0,false,Rx,0,8,00,6C,8E,00,80,FF,7F,21,
1109757,000002A0,false,Rx,0,8,00,6D,8F,00,80,FF,7F,21,
1111575,000002A0,false,Rx,0,8,00,6E,90,00,80,FF,7F,21,
1113403,00000299,false,Rx,0,8,00,00,00,00,00,00,18,74,
1124966,00000312,false,Rx,0,8,00,10,8F,06,00,FF,00,07,
1125208,00000422,false,Rx,0,8,00,00,00,00,00,00,00,67,
1125444,000003F3,false,Rx,0,8,5C,66,0D,8F,FF,7F,00,80,
1126125,000003F3,false,Rx,0,8,5C,66,0E,90,FF,7F,00,80,
1126361,000002A0,false,Rx,0,8,00,60,82,00,80,FF,7F,21,
1127964,000002A0,false,Rx,0,8,00,61,83,00,80,FF,7F,21,
1129782,000002A0,false,Rx,0,8,00,62,84,00,80,FF,7F,21,
1131600,000002A0,false,Rx,0,8,00,63,85,00,80,FF,7F,21,
1133420,000002A0,false,Rx,0,8,00,64,86,00,80,FF,7F,21,
1144931,00000312,false,Rx,0,8,00,10,8F,07,00,FF,00,08,
1145183,000003F3,false,Rx,0,8,5C,66,00,82,FF,7F,00,80,
1146096,000003F3,false,Rx,0,8,5C,66,01,83,FF,7F,00,80,
1146332,000002A0,false,Rx,0,8,00,65,87,00,80,FF,7F,21,
1147923,000002A0,false,Rx,0,8,00,66,88,00,80,FF,7F,21,
1149741,000002A0,false,Rx,0,8,00,67,89,00,80,FF,7F,21,
1151560,000002A0,false,Rx,0,8,00,68,8A,00,80,FF,7F,21,
1153389,000002A0,false,Rx,0,8,00,69,8B,00,80,FF,7F,21,
1155000,00000422,false,Rx,0,8,00,00,00,00,00,00,00,67,
1164948,00000312,false,Rx,0,8,00,10,8F,08,00,FF,00,09,
1166099,000003F3,false,Rx,0,8,5C,66,04,86,FF,7F,00,80,
1166335,000002A0,false,Rx,0,8,00,6A,8C,00,80,FF,7F,21,
1167933,000002A0,false,Rx,0,8,00,6B,8D,00,80,FF,7F,21,
1169751,000002A0,false,Rx,0,8,00,6C,8E,00,80,FF,7F,21,
1171570,000002A0,false,Rx,0,8,00,6D,8F,00,80,FF,7F,21,
1173399,000002A0,false,Rx,0,8,00,6E,90,00,80,FF,7F,21,
1184941,00000312,false,Rx,0,8,00,10,8F,09,00,FF,00,0A,
1185193,00000422,false,Rx,0,8,00,00,00,00,00,00,00,67,
1185429,000003F3,false,Rx,0,8,5C,66,05,87,FF,7F,00,80,
1186100,000003F3,false,Rx,0,8,5C,66,06,88,FF,7F,00,80,
1186346,00000299,false,Rx,0,8,00,00,00,00,00,00,18,74,
1187940,000002A0,false,Rx,0,8,00,60,82,00,80,FF,7F,21,
1189767,000002A0,false,Rx,0,8,00,61,83,00,80,FF,7F,21,
1191585,000002A0,false,Rx,0,8,00,62,84,00,80,FF,7F,21,
1193404,000002A0,false,Rx,0,8,00,63,85,00,80,FF,7F,21,
1204946,00000312,false,Rx,0,8,00,10,8F,0A,00,FF,00,0B,
1205198,000003F3,false,Rx,0,8,5C,66,07,89,FF,7F,00,80,
1206111,000003F3,false,Rx,0,8,5C,66,08,8A,FF,7F,00,80,
1206346,000002A0,false,Rx,0,8,00,64,86,00,80,FF,7F,21,
1207939,000002A0,false,Rx,0,8,00,65,87,00,80,FF,7F,21,
1209756,000002A0,false,Rx,0,8,00,66,88,00,80,FF,7F,21,
1211585,000002A0,false,Rx,0,8,00,67,89,00,80,FF,7F,21,
1213404,000002A0,false,Rx,0,8,00,68,8A,00,80,FF,7F,21,
1214954,00000422,false,Rx,0,8,00,00,00,00,00,00,00,67,
1224994,00000312,false,Rx,0,8,00,10,8F,0B,00,FF,00,0C,
1225246,000003F3,false,Rx,0,8,5C,66,09,8B,FF,7F,00,80,
1226149,000003F3,false,Rx,0,8,5C,66,0A,8C,FF,7F,00,80,
1226397,000002A0,false,Rx,0,8,00,69,8B,00,80,FF,7F,21,
1227987,000002A0,false,Rx,0,8,00,6A,8C,00,80,FF,7F,21,
1229804,000002A0,false,Rx,0,8,00,6B,8D,00,80,FF,7F,21,
1231632,000002A0,false,Rx,0,8,00,6C,8E,00,80,FF,7F,21,
1233451,000002A0,false,Rx,0,8,00,6D,8F,00,80,FF,7F,21,
1244953,00000312,false,Rx,0,8,00,10,8F,0C,00,FF,00,0D,
1245195,00000422,false,Rx,0,8,00,00,00,00,00,00,00,67,
1245431,000003F3,false,Rx,0,8,5C,66,0B,8D,FF,7F,00,80,
1246112,000003F3,false,Rx,0,8,5C,66,0C,8E,FF,7F,00,80,
1246349,000002A0,false,Rx,0,8,00,6E,90,00,80,FF,7F,21,
1247943,00000299,false,Rx,0,8,00,00,00,00,00,00,18,74,
1249770,000002A0,false,Rx,0,8,00,60,82,00,80,FF,7F,21,
1251588,000002A0,false,Rx,0,8,00,61,83,00,80,FF,7F,21,
1253407,000002A0,false,Rx,0,8,00,62,84,00,80,FF,7F,21,
1264950,00000312,false,Rx,0,8,00,10,8F,0D,00,FF,00,0E,
1265192,000003F3,false,Rx,0,8,5C,66,0D,8F,FF,7F,00,80,
1266105,000003F3,false,Rx,0,8,5C,66,0E,90,FF,7F,00,80,
1266342,000002A0,false,Rx,0,8,00,63,85,00,80,FF,7F,21,
1267933,000002A0,false,Rx,0,8,00,64,86,00,80,FF,7F,21,
1269760,000002A0,false,Rx,0,8,00,65,87,00,80,FF,7F,21,
1271578,000002A0,false,Rx,0,8,00,66,88,00,80,FF,7F,21,
1273407,000002A0,false,Rx,0,8,00,67,89,00,80,FF,7F,21,
1274947,00000422,false,Rx,0,8,00,00,00,00,00,00,00,67,
1284915,00000312,false,Rx,0,8,00,10,8F,0E,00,FF,00,0F,
1285157,000003F3,false,Rx,0,8,5C,66,00,82,FF,7F,00,80,
1286070,000003F3,false,Rx,0,8,5C,66,01,83,FF,7F,00,80,
1286307,000002A0,false,Rx,0,8,00,68,8A,00,80,FF,7F,21,
1287908,000002A0,false,Rx,0,8,00,69,8B,00,80,FF,7F,21,
1289725,000002A0,false,Rx,0,8,00,6A,8C,00,80,FF,7F,21,
1291543,000002A0,false,Rx,0,8,00,6B,8D,00,80,FF,7F,21,
1293373,000002A0,false,Rx,0,8,00,6C,8E,00,80,FF,7F,21,
1304936,00000312,false,Rx,0,8,00,10,8F,00,00,FF,00,01,
1305178,00000422,false,Rx,0,8,00,00,00,00,00,00,00,67,
1305414,000002A0,false,Rx,0,8,00,62,84,00,80,FF,7F,21,
1307004,000002A0,false,Rx,0,8,00,63,85,00,80,FF,7F,21,
1308824,000002A0,false,Rx,0,8,00,64,86,00,80,FF,7F,21,
1310644,000002A0,false,Rx,0,8,00,65,87,00,80,FF,7F,21,
1312464,000002A0,false,Rx,0,8,00,66,88,00,80,FF,7F,21,
1325001,00000312,false,Rx,0,8,00,10,8F,01,00,FF,00,02,
1325253,000003F3,false,Rx,0,8,5C,66,01,83,FF,7F,00,80,
1326156,000003F3,false,Rx,0,8,5C,66,04,86,FF,7F,00,80,
1326393,000002A0,false,Rx,0,8,00,67,89,00,80,FF,7F,21,
1327984,000002A0,false,Rx,0,8,00,68,8A,00,80,FF,7F,21,
1329812,000002A0,false,Rx,0,8,00,69,8B,00,80,FF,7F,21,
1331631,000002A0,false,Rx,0,8,00,6A,8C,00,80,FF,7F,21,
1333459,000002A0,false,Rx,0,8,00,6B,8D,00,80,FF,7F,21,
1334949,00000422,false,Rx,0,8,00,00,00,00,00,00,00,67,
1344946,00000312,false,Rx,0,8,00,10,8F,02,00,FF,00,03,
1345198,000003F3,false,Rx,0,8,5C,66,05,87,FF,7F,00,80,
1346101,000003F3,false,Rx,0,8,5C,66,06,88,FF,7F,00,80,
1346348,000002A0,false,Rx,0,8,00,6C,8E,00,80,FF,7F,21,
1347939,000002A0,false,Rx,0,8,00,6D,8F,00,80,FF,7F,21,
1349756,000002A0,false,Rx,0,8,00,6E,90,00,80,FF,7F,21,
1351585,00000299,false,Rx,0,8,00,00,00,00,00,00,18,74,
1353403,000002A0,false,Rx,0,8,00,60,82,00,80,FF,7F,21,
1364945,00000312,false,Rx,0,8,00,10,8F,03,00,FF,00,04,
1365187,00000422,false,Rx,0,8,00,00,00,00,00,00,00,67,
1365424,000003F3,false,Rx,0,8,5C,66,07,89,FF,7F,00,80,
1366104,000003F3,false,Rx,0,8,5C,66,08,8A,FF,7F,00,80,
1366341,000002A0,false,Rx,0,8,00,61,83,00,80,FF,7F,21,
1367934,000002A0,false,Rx,0,8,00,62,84,00,80,FF,7F,21,
1369761,000002A0,false,Rx,0,8,00,63,85,00,80,FF,7F,21,
1371580,000002A0,false,Rx,0,8,00,64,86,00,80,FF,7F,21,
1373398,000002A0,false,Rx,0,8,00,65,87,00,80,FF,7F,21,
1384950,00000312,false,Rx,0,8,00,10,8F,04,00,FF,00,05,
1385191,000003F3,false,Rx,0,8,5C,66,09,8B,FF,7F,00,80,
1386106,000003F3,false,Rx,0,8,5C,66,0A,8C,FF,7F,00,80,
1386341,000002A0,false,Rx,0,8,00,66,88,00,80,FF,7F,21,
1387943,000002A0,false,Rx,0,8,00,67,89,00,80,FF,7F,21,
1389760,000002A0,false,Rx,0,8,00,68,8A,00,80,FF,7F,21,
1391580,000002A0,false,Rx,0,8,00,69,8B,00,80,FF,7F,21,
1393409,000002A0,false,Rx,0,8,00,6A,8C,00,80,FF,7F,21,
1394989,00000422,false,Rx,0,8,00,00,00,00,00,00,00,67,
1404946,00000312,false,Rx,0,8,00,10,8F,05,00,FF,00,06,
1405188,000003F3,false,Rx,0,8,5C,66,0B,8D,FF,7F,00,80,
1406103,000003F3,false,Rx,0,8,5C,66,0C,8E,FF,7F,00,80,
1406339,000002A0,false,Rx,0,8,00,6B,8D,00,80,FF,7F,21,
1407939,000002A0,false,Rx,0,8,00,6C,8E,00,80,FF,7F,21,
1409756,000002A0,false,Rx,0,8,00,6D,8F,00,80,FF,7F,21,
1411576,000002A0,false,Rx,0,8,00,6E,90,00,80,FF,7F,21,
1413404,00000299,false,Rx,0,8,00,00,00,00,00,00,18,74,
1424987,00000312,false,Rx,0,8,00,10,8F,06,00,FF,00,07,
1425239,00000422,false,Rx,0,8,00,00,00,00,00,00,00,67,
1425466,000003F3,false,Rx,0,8,5C,66,0D,8F,FF,7F,00,80,
1426147,000003F3,false,Rx,0,8,5C,66,0E,90,FF,7F,00,80,
1426393,000002A0,false,Rx,0,8,00,60,82,00,80,FF,7F,21,
1427986,000002A0,false,Rx,0,8,00,61,83,00,80,FF,7F,21,
1429803,000002A0,false,Rx,0,8,00,62,84,00,80,FF,7F,21,
1431622,000002A0,false,Rx,0,8,00,63,85,00,80,FF,7F,21,
1433440,000002A0,false,Rx,0,8,00,64,86,00,80,FF,7F,21,
1444911,00000312,false,Rx,0,8,00,10,8F,07,00,FF,00,08,
1445163,000003F3,false,Rx,0,8,5C,66,00,82,FF,7F,00,80,
1446077,000003F3,false,Rx,0,8,5C,66,01,83,FF,7F,00,80,
1446313,000002A0,false,Rx,0,8,00,65,87,00,80,FF,7F,21,
1447904,000002A0,false,Rx,0,8,00,66,88,00,80,FF,7F,21,
1449721,000002A0,false,Rx,0,8,00,67,89,00,80,FF,7F,21,
1451540,000002A0,false,Rx,0,8,00,68,8A,00,80,FF,7F,21,
1453368,000002A0,false,Rx,0,8,00,69,8B,00,80,FF,7F,21,
1454918,00000422,false,Rx,0,8,00,00,00,00,00,00,00,67,
1464936,00000312,false,Rx,0,8,00,10,8F,08,00,FF,00,09,
1466098,000003F3,false,Rx,0,8,5C,66,04,86,FF,7F,00,80,
1466334,000002A0,false,Rx,0,8,00,6A,8C,00,80,FF,7F,21,
1467922,000002A0,false,Rx,0,8,00,6B,8D,00,80,FF,7F,21,
1469749,000002A0,false,Rx,0,8,00,6C,8E,00,80,FF,7F,21,
1471568,000002A0,false,Rx,0,8,00,6D,8F,00,80,FF,7F,21,
1473386,000002A0,false,Rx,0,8,00,6E,90,00,80,FF,7F,21,
1484940,00000312,false,Rx,0,8,00,10,8F,09,00,FF,00,0A,
1485193,00000422,false,Rx,0,8,00,00,00,00,00,00,00,67,
1485429,000003F3,false,Rx,0,8,5C,66,05,87,FF,7F,00,80,
1486100,000003F3,false,Rx,0,8,5C,66,06,88,FF,7F,00,80,
1486346,00000299,false,Rx,0,8,00,00,00,00,00,00,18,74,
1487940,000002A0,false,Rx,0,8,00,60,82,00,80,FF,7F,21,
1489757,000002A0,false,Rx,0,8,00,61,83,00,80,FF,7F,21,
1491577,000002A0,false,Rx,0,8,00,62,84,00,80,FF,7F,21,
1493405,000002A0,false,Rx,0,8,00,63,85,00,80,FF,7F,21,
1504946,00000312,false,Rx,0,8,00,10,8F,0A,00,FF,00,0B,
1505199,000003F3,false,Rx,0,8,5C,66,07,89,FF,7F,00,80,
1506112,000003F3,false,Rx,0,8,5C,66,08,8A,FF,7F,00,80,
1506347,000002A0,false,Rx,0,8,00,64,86,00,80,FF,7F,21,
1507938,000002A0,false,Rx,0,8,00,65,87,00,80,FF,7F,21,
1509758,000002A0,false,Rx,0,8,00,66,88,00,80,FF,7F,21,
1511586,000002A0,false,Rx,0,8,00,67,89,00,80,FF,7F,21,
1513404,000002A0,false,Rx,0,8,00,68,8A,00,80,FF,7F,21,
1514954,00000422,false,Rx,0,8,00,00,00,00,00,00,00,67,
1524992,00000312,false,Rx,0,8,00,10,8F,0B,00,FF,00,0C,
1525235,000003F3,false,Rx,0,8,5C,66,09,8B,FF,7F,00,80,
1526148,000003F3,false,Rx,0,8,5C,66,0A,8C,FF,7F,00,80,
1526384,000002A0,false,Rx,0,8,00,69,8B,00,80,FF,7F,21,
1527985,000002A0,false,Rx,0,8,00,6A,8C,00,80,FF,7F,21,
1529803,000002A0,false,Rx,0,8,00,6B,8D,00,80,FF,7F,21,
1531621,000002A0,false,Rx,0,8,00,6C,8E,00,80,FF,7F,21,
1533439,000002A0,false,Rx,0,8,00,6D,8F,00,80,FF,7F,21,
1544941,00000312,false,Rx,0,8,00,10,8F,0C,00,FF,00,0D,
1545194,00000422,false,Rx,0,8,00,00,00,00,00,00,00,67,
1545430,000003F3,false,Rx,0,8,5C,66,0B,8D,FF,7F,00,80,
1546111,000003F3,false,Rx,0,8,5C,66,0C,8E,FF,7F,00,80,
1546347,000002A0,false,Rx,0,8,00,6E,90,00,80,FF,7F,21,
1547940,00000299,false,Rx,0,8,00,00,00,00,00,00,18,74,
1549758,000002A0,false,Rx,0,8,00,60,82,00,80,FF,7F,21,
1551587,000002A0,false,Rx,0,8,00,61,83,00,80,FF,7F,21,
1553404,000002A0,false,Rx,0,8,00,62,84,00,80,FF,7F,21,
1564947,00000312,false,Rx,0,8,00,10,8F,0D,00,FF,00,0E,
1565190,000003F3,false,Rx,0,8,5C,66,0D,8F,FF,7F,00,80,
1566104,000003F3,false,Rx,0,8,5C,66,0E,90,FF,7F,00,80,
1566340,000002A0,false,Rx,0,8,00,63,85,00,80,FF,7F,21,
1567933,000002A0,false,Rx,0,8,00,64,86,00,80,FF,7F,21,
1569751,000002A0,false,Rx,0,8,00,65,87,00,80,FF,7F,21,
1571580,000002A0,false,Rx,0,8,00,66,88,00,80,FF,7F,21,
1573398,000002A0,false,Rx,0,8,00,67,89,00,80,FF,7F,21,
1574948,00000422,false,Rx,0,8,00,00,00,00,00,00,00,67,
1584946,00000312,false,Rx,0,8,00,10,8F,0E,00,FF,00,0F,
1585189,000003F3,false,Rx,0,8,5C,66,00,82,FF,7F,00,80,
1586102,000003F3,false,Rx,0,8,5C,66,01,83,FF,7F,00,80,
1586338,000002A0,false,Rx,0,8,00,68,8A,00,80,FF,7F,21,
1587929,000002A0,false,Rx,0,8,00,69,8B,00,80,FF,7F,21,
1589757,000002A0,false,Rx,0,8,00,6A,8C,00,80,FF,7F,21,
1591575,000002A0,false,Rx,0,8,00,6B,8D,00,80,FF,7F,21,
1593403,000002A0,false,Rx,0,8,00,6C,8E,00,80,FF,7F,21,
1604914,00000312,false,Rx,0,8,00,10,8F,00,00,FF,00,01,
1605157,00000422,false,Rx,0,8,00,00,00,00,00,00,00,67,
1605393,000002A0,false,Rx,0,8,00,62,84,00,80,FF,7F,21,
1606981,000002A0,false,Rx,0,8,00,63,85,00,80,FF,7F,21,
1608804,000002A0,false,Rx,0,8,00,64,86,00,80,FF,7F,21,
1610624,000002A0,false,Rx,0,8,00,65,87,00,80,FF,7F,21,
1612443,000002A0,false,Rx,0,8,00,66,88,00,80,FF,7F,21,
1624968,00000312,false,Rx,0,8,00,10,8F,01,00,FF,00,02,
1625220,000003F3,false,Rx,0,8,5C,66,01,83,FF,7F,00,80,
1626133,000003F3,false,Rx,0,8,5C,66,04,86,FF,7F,00,80,
1626369,000002A0,false,Rx,0,8,00,67,89,00,80,FF,7F,21,
1627959,000002A0,false,Rx,0,8,00,68,8A,00,80,FF,7F,21,
1629787,000002A0,false,Rx,0,8,00,69,8B,00,80,FF,7F,21,
1631605,000002A0,false,Rx,0,8,00,6A,8C,00,80,FF,7F,21,
1633425,000002A0,false,Rx,0,8,00,6B,8D,00,80,FF,7F,21,
1634955,00000422,false,Rx,0,8,00,00,00,00,00,00,00,67,
1644943,00000312,false,Rx,0,8,00,10,8F,02,00,FF,00,03,
1645195,000003F3,false,Rx,0,8,5C,66,05,87,FF,7F,00,80,
1646109,000003F3,false,Rx,0,8,5C,66,06,88,FF,7F,00,80,
1646345,000002A0,false,Rx,0,8,00,6C,8E,00,80,FF,7F,21,
1647936,000002A0,false,Rx,0,8,00,6D,8F,00,80,FF,7F,21,
1649754,000002A0,false,Rx,0,8,00,6E,90,00,80,FF,7F,21,
1651582,00000299,false,Rx,0,8,00,00,00,00,00,00,18,74,
1653411,000002A0,false,Rx,0,8,00,60,82,00,80,FF,7F,21,
1664942,00000312,false,Rx,0,8,00,10,8F,03,00,7F,80,84,
1665194,00000422,false,Rx,0,8,00,00,00,00,00,00,00,67,
1665430,000003F3,false,Rx,0,8,5C,66,07,89,FF,7F,00,80,
1666101,000003F3,false,Rx,0,8,5C,66,08,8A,FF,7F,00,80,
1666347,000002A0,false,Rx,0,8,00,61,83,00,80,FF,7F,21,
1667941,000002A0,false,Rx,0,8,00,62,84,00,80,FF,7F,21,
1669758,000002A0,false,Rx,0,8,00,63,85,00,80,FF,7F,21,
1671576,000002A0,false,Rx,0,8,00,64,86,00,80,FF,7F,21,
1673395,000002A0,false,Rx,0,8,00,65,87,00,80,FF,7F,21,
1684948,00000312,false,Rx,0,8,00,10,8F,04,00,7F,80,85,
1685200,000003F3,false,Rx,0,8,5C,66,09,8B,FF,7F,00,80,
1686103,000003F3,false,Rx,0,8,5C,66,0A,8C,FF,7F,00,80,
1686349,000002A0,false,Rx,0,8,00,66,88,00,80,FF,7F,21,
1687940,000002A0,false,Rx,0,8,00,67,89,00,80,FF,7F,21,
1689757,000002A0,false,Rx,0,8,00,68,8A,00,80,FF,7F,21,
1691585,000002A0,false,Rx,0,8,00,69,8B,00,80,FF,7F,21,
1693405,000002A0,false,Rx,0,8,00,6A,8C,00,80,FF,7F,21,
1694965,00000422,false,Rx,0,8,00,00,00,00,00,00,00,67,
1704943,00000312,false,Rx,0,8,00,10,8E,15,00,FF,00,07,
1706104,000003F3,false,Rx,0,8,7C,24,06,09,FE,FF,01,00,
1706341,000002A0,false,Rx,0,8,00,6B,0E,01,00,FE,FF,21,
1707929,000002A0,false,Rx,0,8,00,6C,0F,01,00,FE,FF,21,
1709756,000002A0,false,Rx,0,8,00,6D,10,01,00,FE,FF,21,
1711575,000002A0,false,Rx,0,8,00,6E,11,01,00,FE,FF,21,
1713404,00000299,false,Rx,0,8,00,00,00,00,00,00,18,74,
1724987,00000312,false,Rx,0,8,00,10,8E,16,00,FF,00,08,
1725229,00000422,false,Rx,0,8,00,00,00,00,00,00,00,67,
1726141,000003F3,false,Rx,0,8,7C,24,07,0A,FE,FF,01,00,
1726389,000002A0,false,Rx,0,8,00,60,03,01,00,FE,FF,21,
1727969,000002A0,false,Rx,0,8,00,61,04,01,00,FE,FF,21,
1729796,000002A0,false,Rx,0,8,00,62,05,01,00,FE,FF,21,
1731615,000002A0,false,Rx,0,8,00,63,06,01,00,FE,FF,21,
1733434,000002A0,false,Rx,0,8,00,64,07,01,00,FE,FF,21,
1744936,00000312,false,Rx,0,8,00,20,8E,17,00,FF,00,08,
1746097,000003F3,false,Rx,0,8,7C,24,08,0B,FE,FF,01,00,
1746344,000002A0,false,Rx,0,8,00,65,08,01,00,FE,FF,21,
1747923,000002A0,false,Rx,0,8,00,66,09,01,00,FE,FF,21,
1749740,000002A0,false,Rx,0,8,00,67,0A,01,00,FE,FF,21,
1751568,000002A0,false,Rx,0,8,00,68,0B,01,00,FE,FF,21,
1753387,000002A0,false,Rx,0,8,00,69,0C,01,00,FE,FF,21,
1754917,00000422,false,Rx,0,8,00,00,00,00,00,00,00,67,
1764864,00000312,false,Rx,0,8,00,10,8E,18,00,FF,00,0A,
1766025,000003F3,false,Rx,0,8,7C,24,09,0C,FE,FF,01,00,
1766262,000002A0,false,Rx,0,8,00,6A,0D,01,00,FE,FF,21,
1767852,000002A0,false,Rx,0,8,00,6B,0E,01,00,FE,FF,21,
1769669,000002A0,false,Rx,0,8,00,6C,0F,01,00,FE,FF,21,
1771497,000002A0,false,Rx,0,8,00,6D,10,01,00,FE,FF,21,
1773306,000002A0,false,Rx,0,8,00,6E,11,01,00,FE,FF,21,
1784991,00000312,false,Rx,0,8,00,10,8E,19,00,FF,00,0B,
1785233,00000422,false,Rx,0,8,00,00,00,00,00,00,00,67,
1786156,000003F3,false,Rx,0,8,7C,24,0A,0D,FE,FF,01,00,
1786393,00000299,false,Rx,0,8,00,00,00,00,00,00,18,74,
1787984,000002A0,false,Rx,0,8,00,60,03,01,00,FE,FF,21,
1789791,000002A0,false,Rx,0,8,00,61,04,01,00,FE,FF,21,
1791621,000002A0,false,Rx,0,8,00,62,05,01,00,FE,FF,21,
1793439,000002A0,false,Rx,0,8,00,63,06,01,00,FE,FF,21,
1804941,00000312,false,Rx,0,8,00,10,8E,1A,00,FF,00,0C,
1806102,000003F3,false,Rx,0,8,7C,24,0B,0E,FE,FF,01,00,
1806339,000002A0,false,Rx,0,8,00,64,07,01,00,FE,FF,21,
1807928,000002A0,false,Rx,0,8,00,65,08,01,00,FE,FF,21,
1809745,000002A0,false,Rx,0,8,00,66,09,01,00,FE,FF,21,
1811565,000002A0,false,Rx,0,8,00,67,0A,01,00,FE,FF,21,
1813393,000002A0,false,Rx,0,8,00,68,0B,01,00,FE,FF,21,
1814954,00000422,false,Rx,0,8,00,00,00,00,00,00,00,67,
1824995,00000312,false,Rx,0,8,00,10,8E,1B,00,FF,00,0D,
1826157,000003F3,false,Rx,0,8,7C,24,0C,0F,FE,FF,01,00,
1826392,000002A0,false,Rx,0,8,00,69,0C,01,00,FE,FF,21,
1827981,000002A0,false,Rx,0,8,00,6A,0D,01,00,FE,FF,21,
1829798,000002A0,false,Rx,0,8,00,6B,0E,01,00,FE,FF,21,
1831617,000002A0,false,Rx,0,8,00,6C,0F,01,00,FE,FF,21,
1833445,000002A0,false,Rx,0,8,00,6D,10,01,00,FE,FF,21,
1844946,00000312,false,Rx,0,8,00,10,8E,1C,00,FF,00,0E,
1845198,00000422,false,Rx,0,8,00,00,00,00,00,00,00,67,
1846101,000003F3,false,Rx,0,8,7C,24,0D,10,FE,FF,01,00,
1846338,000002A0,false,Rx,0,8,00,6E,11,01,00,FE,FF,21,
1847939,00000299,false,Rx,0,8,00,00,00,00,00,00,18,74,
1849756,000002A0,false,Rx,0,8,00,60,03,01,00,FE,FF,21,
1851575,000002A0,false,Rx,0,8,00,61,04,01,00,FE,FF,21,
1853393,000002A0,false,Rx,0,8,00,62,05,01,00,FE,FF,21,
1864945,00000312,false,Rx,0,8,00,10,8E,1D,00,FF,00,0F,
1866107,000003F3,false,Rx,0,8,7C,24,0E,11,FE,FF,01,00,
1866343,000002A0,false,Rx,0,8,00,63,06,01,00,FE,FF,21,
1867931,000002A0,false,Rx,0,8,00,64,07,01,00,FE,FF,21,
1869748,000002A0,false,Rx,0,8,00,65,08,01,00,FE,FF,21,
1871567,000002A0,false,Rx,0,8,00,66,09,01,00,FE,FF,21,
1873385,000002A0,false,Rx,0,8,00,67,0A,01,00,FE,FF,21,
1874945,00000422,false,Rx,0,8,00,00,00,00,00,00,00,67,
1884944,00000312,false,Rx,0,8,00,10,8E,1E,00,FF,00,10,
1886106,000003F3,false,Rx,0,8,7C,24,00,03,FE,FF,01,00,
1886341,000002A0,false,Rx,0,8,00,68,0B,01,00,FE,FF,21,
1887931,000002A0,false,Rx,0,8,00,69,0C,01,00,FE,FF,21,
1889747,000002A0,false,Rx,0,8,00,6A,0D,01,00,FE,FF,21,
1891567,000002A0,false,Rx,0,8,00,6B,0E,01,00,FE,FF,21,
1893395,000002A0,false,Rx,0,8,00,6C,0F,01,00,FE,FF,21,
1904967,00000312,false,Rx,0,8,00,10,8E,10,00,FF,00,02,
1905209,00000422,false,Rx,0,8,00,00,00,00,00,00,00,67,
1906123,000003F3,false,Rx,0,8,7C,24,01,04,FE,FF,01,00,
1906359,000002A0,false,Rx,0,8,00,62,05,01,00,FE,FF,21,
1907950,000002A0,false,Rx,0,8,00,63,06,01,00,FE,FF,21,
1909766,000002A0,false,Rx,0,8,00,64,07,01,00,FE,FF,21,
1911595,000002A0,false,Rx,0,8,00,65,08,01,00,FE,FF,21,
1913413,000002A0,false,Rx,0,8,00,66,09,01,00,FE,FF,21,
1924865,00000312,false,Rx,0,8,00,10,8E,11,00,FF,00,03,
1926027,000003F3,false,Rx,0,8,7C,24,02,05,FE,FF,01,00,
1926262,000002A0,false,Rx,0,8,00,67,0A,01,00,FE,FF,21,
1927850,000002A0,false,Rx,0,8,00,68,0B,01,00,FE,FF,21,
1929668,000002A0,false,Rx,0,8,00,69,0C,01,00,FE,FF,21,
1931487,000002A0,false,Rx,0,8,00,6A,0D,01,00,FE,FF,21,
1933315,000002A0,false,Rx,0,8,00,6B,0E,01,00,FE,FF,21,
1934951,00000422,false,Rx,0,8,00,00,00,00,00,00,00,67,
1944947,00000312,false,Rx,0,8,00,10,8E,12,00,FF,00,04,
1946099,000003F3,false,Rx,0,8,7C,24,03,06,FE,FF,01,00,
1946345,000002A0,false,Rx,0,8,00,6C,0F,01,00,FE,FF,21,
1947933,000002A0,false,Rx,0,8,00,6D,10,01,00,FE,FF,21,
1949750,000002A0,false,Rx,0,8,00,6E,11,01,00,FE,FF,21,
1951570,00000299,false,Rx,0,8,00,00,00,00,00,00,18,74,
1953399,000002A0,false,Rx,0,8,00,60,03,01,00,FE,FF,21,
1964941,00000312,false,Rx,0,8,00,10,8E,13,00,FF,00,05,
1965194,00000422,false,Rx,0,8,00,00,00,00,00,00,00,67,
1966107,000003F3,false,Rx,0,8,7C,24,04,07,FE,FF,01,00,
1966343,000002A0,false,Rx,0,8,00,61,04,01,00,FE,FF,21,
1967933,000002A0,false,Rx,0,8,00,62,05,01,00,FE,FF,21,
1969750,000002A0,false,Rx,0,8,00,63,06,01,00,FE,FF,21,
1971570,000002A0,false,Rx,0,8,00,64,07,01,00,FE,FF,21,
1973398,000002A0,false,Rx,0,8,00,65,08,01,00,FE,FF,21,
1984982,00000312,false,Rx,0,8,00,10,8E,14,00,FF,00,06,
1986144,000003F3,false,Rx,0,8,7C,24,05,08,FE,FF,01,00,
1986380,000002A0,false,Rx,0,8,00,66,09,01,00,FE,FF,21,
1987968,000002A0,false,Rx,0,8,00,67,0A,01,00,FE,FF,21,
1989796,000002A0,false,Rx,0,8,00,68,0B,01,00,FE,FF,21,
1991615,000002A0,false,Rx,0,8,00,69,0C,01,00,FE,FF,21,
1993433,000002A0,false,Rx,0,8,00,6A,0D,01,00,FE,FF,21,
1994953,00000422,false,Rx,0,8,00,00,00,00,00,00,00,67,
2004941,00000312,false,Rx,0,8,00,10,8E,15,00,FF,00,07,
2006103,000003F3,false,Rx,0,8,7C,24,06,09,FE,FF,01,00,
2006339,000002A0,false,Rx,0,8,00,6B,0E,01,00,FE,FF,21,
2007928,000002A0,false,Rx,0,8,00,6C,0F,01,00,FE,FF,21,
2009756,000002A0,false,Rx,0,8,00,6D,10,01,00,FE,FF,21,
2011575,000002A0,false,Rx,0,8,00,6E,11,01,00,FE,FF,21,
2013403,00000299,false,Rx,0,8,00,00,00,00,00,00,18,74,
2024974,00000312,false,Rx,0,8,00,10,8E,16,00,FF,00,08,
2025217,00000422,false,Rx,0,8,00,00,00,00,00,00,00,67,
2026131,000003F3,false,Rx,0,8,7C,24,07,0A,FE,FF,01,00,
2026376,000002A0,false,Rx,0,8,00,60,03,01,00,FE,FF,21,
2027957,000002A0,false,Rx,0,8,00,61,04,01,00,FE,FF,21,
2029775,000002A0,false,Rx,0,8,00,62,05,01,00,FE,FF,21,
2031603,000002A0,false,Rx,0,8,00,63,06,01,00,FE,FF,21,
2033421,000002A0,false,Rx,0,8,00,64,07,01,00,FE,FF,21,
2044944,00000312,false,Rx,0,8,00,10,8E,17,00,FF,00,09,
2046096,000003F3,false,Rx,0,8,7C,24,08,0B,FE,FF,01,00,
2046342,000002A0,false,Rx,0,8,00,65,08,01,00,FE,FF,21,
2047930,000002A0,false,Rx,0,8,00,66,09,01,00,FE,FF,21,
2049749,000002A0,false,Rx,0,8,00,67,0A,01,00,FE,FF,21,
2051567,000002A0,false,Rx,0,8,00,68,0B,01,00,FE,FF,21,
2053385,000002A0,false,Rx,0,8,00,69,0C,01,00,FE,FF,21,
2054995,00000422,false,Rx,0,8,00,00,00,00,00,00,00,67,
2064964,00000312,false,Rx,0,8,00,10,8E,18,00,FF,00,0A,
2066126,000003F3,false,Rx,0,8,7C,24,09,0C,FE,FF,01,00,
2066362,000002A0,false,Rx,0,8,00,6A,0D,01,00,FE,FF,21,
2067951,000002A0,false,Rx,0,8,00,6B,0E,01,00,FE,FF,21,
2069779,000002A0,false,Rx,0,8,00,6C,0F,01,00,FE,FF,21,
2071599,000002A0,false,Rx,0,8,00,6D,10,01,00,FE,FF,21,
2073418,000002A0,false,Rx,0,8,00,6E,11,01,00,FE,FF,21,
2084919,00000312,false,Rx,0,8,00,10,8E,19,00,FF,00,0B,
2085163,00000422,false,Rx,0,8,00,00,00,00,00,00,00,67,
2086076,000003F3,false,Rx,0,8,7C,24,0A,0D,FE,FF,01,00,
2086322,00000299,false,Rx,0,8,00,00,00,00,00,00,18,74,
2087902,000002A0,false,Rx,0,8,00,60,03,01,00,FE,FF,21,
2089721,000002A0,false,Rx,0,8,00,61,04,01,00,FE,FF,21,
2091540,000002A0,false,Rx,0,8,00,62,05,01,00,FE,FF,21,
2093368,000002A0,false,Rx,0,8,00,63,06,01,00,FE,FF,21,
2104940,00000312,false,Rx,0,8,00,10,8E,1A,00,FF,00,0C,
2106101,000003F3,false,Rx,0,8,7C,24,0B,0E,FE,FF,01,00,
2106337,000002A0,false,Rx,0,8,00,64,07,01,00,FE,FF,21,
2107926,000002A0,false,Rx,0,8,00,65,08,01,00,FE,FF,21,
2109744,000002A0,false,Rx,0,8,00,66,09,01,00,FE,FF,21,
2111572,000002A0,false,Rx,0,8,00,67,0A,01,00,FE,FF,21,
2113392,000002A0,false,Rx,0,8,00,68,0B,01,00,FE,FF,21,
2114952,00000422,false,Rx,0,8,00,00,00,00,00,00,00,67,
2124941,00000312,false,Rx,0,8,00,10,8E,1B,00,FF,00,0D,
2126102,000003F3,false,Rx,0,8,7C,24,0C,0F,FE,FF,01,00,
2126337,000002A0,false,Rx,0,8,00,69,0C,01,00,FE,FF,21,
2127926,000002A0,false,Rx,0,8,00,6A,0D,01,00,FE,FF,21,
2129744,000002A0,false,Rx,0,8,00,6B,0E,01,00,FE,FF,21,
2131572,000002A0,false,Rx,0,8,00,6C,0F,01,00,FE,FF,21,
2133391,000002A0,false,Rx,0,8,00,6D,10,01,00,FE,FF,21,
2144953,00000312,false,Rx,0,8,00,10,8E,1C,00,FF,00,0E,
2145195,00000422,false,Rx,0,8,00,00,00,00,00,00,00,67,
2146109,000003F3,false,Rx,0,8,7C,24,0D,10,FE,FF,01,00,
2146345,000002A0,false,Rx,0,8,00,6E,11,01,00,FE,FF,21,
2147937,00000299,false,Rx,0,8,00,00,00,00,00,00,18,74,
2149754,000002A0,false,Rx,0,8,00,60,03,01,00,FE,FF,21,
2151572,000002A0,false,Rx,0,8,00,61,04,01,00,FE,FF,21,
2153401,000002A0,false,Rx,0,8,00,62,05,01,00,FE,FF,21,
2164944,00000312,false,Rx,0,8,00,10,8E,1D,00,FF,00,0F,
2166104,000003F3,false,Rx,0,8,7C,24,0E,11,FE,FF,01,00,
2166340,000002A0,false,Rx,0,8,00,63,06,01,00,FE,FF,21,
2167930,000002A0,false,Rx,0,8,00,64,07,01,00,FE,FF,21,
2169747,000002A0,false,Rx,0,8,00,65,08,01,00,FE,FF,21,
2171564,000002A0,false,Rx,0,8,00,66,09,01,00,FE,FF,21,
2173394,000002A0,false,Rx,0,8,00,67,0A,01,00,FE,FF,21,
2174954,00000422,false,Rx,0,8,00,00,00,00,00,00,00,67,
2184982,00000312,false,Rx,0,8,00,10,8E,1E,00,FF,00,10,
2186143,000003F3,false,Rx,0,8,7C,24,00,03,FE,FF,01,00,
2186390,000002A0,false,Rx,0,8,00,68,0B,01,00,FE,FF,21,
2187968,000002A0,false,Rx,0,8,00,69,0C,01,00,FE,FF,21,
2189795,000002A0,false,Rx,0,8,00,6A,0D,01,00,FE,FF,21,
2191613,000002A0,false,Rx,0,8,00,6B,0E,01,00,FE,FF,21,
2193434,000002A0,false,Rx,0,8,00,6C,0F,01,00,FE,FF,21,
2204945,00000312,false,Rx,0,8,00,10,8E,10,00,FF,00,02,
2205197,00000422,false,Rx,0,8,00,00,00,00,00,00,00,67,
2206110,000003F3,false,Rx,0,8,7C,24,01,04,FE,FF,01,00,
2206347,000002A0,false,Rx,0,8,00,62,05,01,00,FE,FF,21,
2207938,000002A0,false,Rx,0,8,00,63,06,01,00,FE,FF,21,
2209755,000002A0,false,Rx,0,8,00,64,07,01,00,FE,FF,21,
2211583,000002A0,false,Rx,0,8,00,65,08,01,00,FE,FF,21,
2213402,000002A0,false,Rx,0,8,00,66,09,01,00,FE,FF,21,
2224965,00000312,false,Rx,0,8,00,10,8E,11,00,FF,00,03,
2226136,000003F3,false,Rx,0,8,7C,24,02,05,FE,FF,01,00,
2226373,000002A0,false,Rx,0,8,00,67,0A,01,00,FE,FF,21,
2227953,000002A0,false,Rx,0,8,00,68,0B,01,00,FE,FF,21,
2229769,000002A0,false,Rx,0,8,00,69,0C,01,00,FE,FF,21,
2231597,000002A0,false,Rx,0,8,00,6A,0D,01,00,FE,FF,21,
2233416,000002A0,false,Rx,0,8,00,6B,0E,01,00,FE,FF,21,
2234906,00000422,false,Rx,0,8,00,00,00,00,00,00,00,67,
2244914,00000312,false,Rx,0,8,00,10,8E,12,00,FF,00,04,
2246074,000003F3,false,Rx,0,8,7C,24,03,06,FE,FF,01,00,
2246312,000002A0,false,Rx,0,8,00,6C,0F,01,00,FE,FF,21,
2247900,000002A0,false,Rx,0,8,00,6D,10,01,00,FE,FF,21,
2249717,000002A0,false,Rx,0,8,00,6E,11,01,00,FE,FF,21,
2251545,00000299,false,Rx,0,8,00,00,00,00,00,00,18,74,
2253364,000002A0,false,Rx,0,8,00,60,03,01,00,FE,FF,21,
2264946,00000312,false,Rx,0,8,00,10,8E,13,00,FF,00,05,
2265188,00000422,false,Rx,0,8,00,00,00,00,00,00,00,67,
2266101,000003F3,false,Rx,0,8,7C,24,04,07,FE,FF,01,00,
2266349,000002A0,false,Rx,0,8,00,61,04,01,00,FE,FF,21,
2267929,000002A0,false,Rx,0,8,00,62,05,01,00,FE,FF,21,
2269756,000002A0,false,Rx,0,8,00,63,06,01,00,FE,FF,21,
2271574,000002A0,false,Rx,0,8,00,64,07,01,00,FE,FF,21,
2273394,000002A0,false,Rx,0,8,00,65,08,01,00,FE,FF,21,
2284987,00000312,false,Rx,0,8,00,10,8E,14,00,FF,00,06,
2286148,000003F3,false,Rx,0,8,7C,24,05,08,FE,FF,01,00,
2286385,000002A0,false,Rx,0,8,00,66,09,01,00,FE,FF,21,
2287974,000002A0,false,Rx,0,8,00,67,0A,01,00,FE,FF,21,
2289791,000002A0,false,Rx,0,8,00,68,0B,01,00,FE,FF,21,
2291610,000002A0,false,Rx,0,8,00,69,0C,01,00,FE,FF,21,
2293439,000002A0,false,Rx,0,8,00,6A,0D,01,00,FE,FF,21,
2294959,00000422,false,Rx,0,8,00,00,00,00,00,00,00,67,
2304936,00000312,false,Rx,0,8,00,10,8E,15,00,FF,00,07,
2306097,000003F3,false,Rx,0,8,7C,24,06,09,FE,FF,01,00,
2306334,000002A0,false,Rx,0,8,00,6B,0E,01,00,FE,FF,21,
2307922,000002A0,false,Rx,0,8,00,6C,0F,01,00,FE,FF,21,
2309749,000002A0,false,Rx,0,8,00,6D,10,01,00,FE,FF,21,
2311569,000002A0,false,Rx,0,8,00,6E,11,01,00,FE,FF,21,
2313397,00000299,false,Rx,0,8,00,00,00,00,00,00,18,74,
2324941,00000312,false,Rx,0,8,00,10,8E,16,00,FF,00,08,
2325193,00000422,false,Rx,0,8,00,00,00,00,00,00,00,67,
2326096,000003F3,false,Rx,0,8,7C,24,07,0A,FE,FF,01,00,
2326343,000002A0,false,Rx,0,8,00,60,03,01,00,FE,FF,21,
2327934,000002A0,false,Rx,0,8,00,61,04,01,00,FE,FF,21,
2329751,000002A0,false,Rx,0,8,00,62,05,01,00,FE,FF,21,
2331570,000002A0,false,Rx,0,8,00,63,06,01,00,FE,FF,21,
2333388,000002A0,false,Rx,0,8,00,64,07,01,00,FE,FF,21,
2344941,00000312,false,Rx,0,8,00,10,8E,17,00,FF,00,09,
2346103,000003F3,false,Rx,0,8,7C,24,08,0B,FE,FF,01,00,
2346339,000002A0,false,Rx,0,8,00,65,08,01,00,FE,FF,21,
2347928,000002A0,false,Rx,0,8,00,66,09,01,00,FE,FF,21,
2349745,000002A0,false,Rx,0,8,00,67,0A,01,00,FE,FF,21,
2351565,000002A0,false,Rx,0,8,00,68,0B,01,00,FE,FF,21,
2353384,000002A0,false,Rx,0,8,00,69,0C,01,00,FE,FF,21,
2355004,00000422,false,Rx,0,8,00,00,00,00,00,00,00,67,
2364941,00000312,false,Rx,0,8,00,10,8E,18,00,FF,00,0A,
2366103,000003F3,false,Rx,0,8,7C,24,09,0C,FE,FF,01,00,
2366339,000002A0,false,Rx,0,8,00,6A,0D,01,00,FE,FF,21,
2367928,000002A0,false,Rx,0,8,00,6B,0E,01,00,FE,FF,21,
2369755,000002A0,false,Rx,0,8,00,6C,0F,01,00,FE,FF,21,
2371575,000002A0,false,Rx,0,8,00,6D,10,01,00,FE,FF,21,
2373393,000002A0,false,Rx,0,8,00,6E,11,01,00,FE,FF,21,
2384957,00000312,false,Rx,0,8,00,10,8E,19,00,FF,00,0B,
2385209,00000422,false,Rx,0,8,00,00,00,00,00,00,00,67,
2386123,000003F3,false,Rx,0,8,7C,24,0A,0D,FE,FF,01,00,
2386369,00000299,false,Rx,0,8,00,00,00,00,00,00,18,74,
2387949,000002A0,false,Rx,0,8,00,60,03,01,00,FE,FF,21,
2389766,000002A0,false,Rx,0,8,00,61,04,01,00,FE,FF,21,
2391585,000002A0,false,Rx,0,8,00,62,05,01,00,FE,FF,21,
2393413,000002A0,false,Rx,0,8,00,63,06,01,00,FE,FF,21,
2404925,00000312,false,Rx,0,8,00,10,8E,1A,00,FF,00,0C,
2406087,000003F3,false,Rx,0,8,7C,24,0B,0E,FE,FF,01,00,
2406323,000002A0,false,Rx,0,8,00,64,07,01,00,FE,FF,21,
2407913,000002A0,false,Rx,0,8,00,65,08,01,00,FE,FF,21,
2409730,000002A0,false,Rx,0,8,00,66,09,01,00,FE,FF,21,
2411550,000002A0,false,Rx,0,8,00,67,0A,01,00,FE,FF,21,
2413379,000002A0,false,Rx,0,8,00,68,0B,01,00,FE,FF,21,
2414999,00000422,false,Rx,0,8,00,00,00,00,00,00,00,67,
2424937,00000312,false,Rx,0,8,00,10,8E,1B,00,FF,00,0D,
2426099,000003F3,false,Rx,0,8,7C,24,0C,0F,FE,FF,01,00,
2426335,000002A0,false,Rx,0,8,00,69,0C,01,00,FE,FF,21,
2427923,000002A0,false,Rx,0,8,00,6A,0D,01,00,FE,FF,21,
2429740,000002A0,false,Rx,0,8,00,6B,0E,01,00,FE,FF,21,
2431570,000002A0,false,Rx,0,8,00,6C,0F,01,00,FE,FF,21,
2433389,000002A0,false,Rx,0,8,00,6D,10,01,00,FE,FF,21,
2444951,00000312,false,Rx,0,8,00,10,8E,1C,00,FF,00,0E,
2445194,00000422,false,Rx,0,8,00,00,00,00,00,00,00,67,
2446107,000003F3,false,Rx,0,8,7C,24,0D,10,FE,FF,01,00,
2446343,000002A0,false,Rx,0,8,00,6E,11,01,00,FE,FF,21,
2447943,00000299,false,Rx,0,8,00,00,00,00,00,00,18,74,
2449761,000002A0,false,Rx,0,8,00,60,03,01,00,FE,FF,21,
2451580,000002A0,false,Rx,0,8,00,61,04,01,00,FE,FF,21,
2453398,000002A0,false,Rx,0,8,00,62,05,01,00,FE,FF,21,
2464939,00000312,false,Rx,0,8,00,10,8E,1D,00,FF,00,0F,
2466101,000003F3,false,Rx,0,8,7C,24,0E,11,FE,FF,01,00,
2466347,000002A0,false,Rx,0,8,00,63,06,01,00,FE,FF,21,
2467926,000002A0,false,Rx,0,8,00,64,07,01,00,FE,FF,21,
2469754,000002A0,false,Rx,0,8,00,65,08,01,00,FE,FF,21,
2471572,000002A0,false,Rx,0,8,00,66,09,01,00,FE,FF,21,
2473390,000002A0,false,Rx,0,8,00,67,0A,01,00,FE,FF,21,
2474950,00000422,false,Rx,0,8,00,00,00,00,00,00,00,67,
2484990,00000312,false,Rx,0,8,00,10,8E,1E,00,FF,00,10,
2486152,000003F3,false,Rx,0,8,7C,24,00,03,FE,FF,01,00,
2486388,000002A0,false,Rx,0,8,00,68,0B,01,00,FE,FF,21,
2487976,000002A0,false,Rx,0,8,00,69,0C,01,00,FE,FF,21,
2489794,000002A0,false,Rx,0,8,00,6A,0D,01,00,FE,FF,21,
2491612,000002A0,false,Rx,0,8,00,6B,0E,01,00,FE,FF,21,
2493440,000002A0,false,Rx,0,8,00,6C,0F,01,00,FE,FF,21,
2504952,00000312,false,Rx,0,8,00,10,8E,10,00,FF,00,02,
2505195,00000422,false,Rx,0,8,00,00,00,00,00,00,00,67,
2506108,000003F3,false,Rx,0,8,7C,24,01,04,FE,FF,01,00,
2506343,000002A0,false,Rx,0,8,00,62,05,01,00,FE,FF,21,
2507934,000002A0,false,Rx,0,8,00,63,06,01,00,FE,FF,21,
2509752,000002A0,false,Rx,0,8,00,64,07,01,00,FE,FF,21,
2511581,000002A0,false,Rx,0,8,00,65,08,01,00,FE,FF,21,
2513399,000002A0,false,Rx,0,8,00,66,09,01,00,FE,FF,21,
2524951,00000312,false,Rx,0,8,00,10,8E,11,00,FF,00,03,
2526103,000003F3,false,Rx,0,8,7C,24,02,05,FE,FF,01,00,
2526349,000002A0,false,Rx,0,8,00,67,0A,01,00,FE,FF,21,
2527938,000002A0,false,Rx,0,8,00,68,0B,01,00,FE,FF,21,
2529746,000002A0,false,Rx,0,8,00,69,0C,01,00,FE,FF,21,
2531575,000002A0,false,Rx,0,8,00,6A,0D,01,00,FE,FF,21,
2533393,000002A0,false,Rx,0,8,00,6B,0E,01,00,FE,FF,21,
2534943,00000422,false,Rx,0,8,00,00,00,00,00,00,00,67,
2544942,00000312,false,Rx,0,8,00,10,8E,12,00,FF,00,04,
2546104,000003F3,false,Rx,0,8,7C,24,03,06,FE,FF,01,00,
2546340,000002A0,false,Rx,0,8,00,6C,0F,01,00,FE,FF,21,
2547938,000002A0,false,Rx,0,8,00,6D,10,01,00,FE,FF,21,
2549747,000002A0,false,Rx,0,8,00,6E,11,01,00,FE,FF,21,
2551575,00000299,false,Rx,0,8,00,00,00,00,00,00,18,74,
2553403,000002A0,false,Rx,0,8,00,60,03,01,00,FE,FF,21,
2564924,00000312,false,Rx,0,8,00,10,8E,13,00,FF,00,05,
2565167,00000422,false,Rx,0,8,00,00,00,00,00,00,00,67,
2566080,000003F3,false,Rx,0,8,7C,24,04,07,FE,FF,01,00,
2566316,000002A0,false,Rx,0,8,00,61,04,01,00,FE,FF,21,
2567906,000002A0,false,Rx,0,8,00,62,05,01,00,FE,FF,21,
2569727,000002A0,false,Rx,0,8,00,63,06,01,00,FE,FF,21,
2571545,000002A0,false,Rx,0,8,00,64,07,01,00,FE,FF,21,
2573373,000002A0,false,Rx,0,8,00,65,08,01,00,FE,FF,21,
2584996,00000312,false,Rx,0,8,00,10,8E,14,00,FF,00,06,
2586157,000003F3,false,Rx,0,8,7C,24,05,08,FE,FF,01,00,
2586393,000002A0,false,Rx,0,8,00,66,09,01,00,FE,FF,21,
2587982,000002A0,false,Rx,0,8,00,67,0A,01,00,FE,FF,21,
2589800,000002A0,false,Rx,0,8,00,68,0B,01,00,FE,FF,21,
2591618,000002A0,false,Rx,0,8,00,69,0C,01,00,FE,FF,21,
2593447,000002A0,false,Rx,0,8,00,6A,0D,01,00,FE,FF,21,
2594957,00000422,false,Rx,0,8,00,00,00,00,00,00,00,67,
2604946,00000312,false,Rx,0,8,00,10,8E,15,00,FF,00,07,
2606097,000003F3,false,Rx,0,8,7C,24,06,09,FE,FF,01,00,
2606332,000002A0,false,Rx,0,8,00,6B,0E,01,00,FE,FF,21,
2607931,000002A0,false,Rx,0,8,00,6C,0F,01,00,FE,FF,21,
2609749,000002A0,false,Rx,0,8,00,6D,10,01,00,FE,FF,21,
2611567,000002A0,false,Rx,0,8,00,6E,11,01,00,FE,FF,21,
2613396,00000299,false,Rx,0,8,00,00,00,00,00,00,18,74,
2624941,00000312,false,Rx,0,8,00,10,8E,16,00,FF,00,08,
2625193,00000422,false,Rx,0,8,00,00,00,00,00,00,00,67,
2626096,000003F3,false,Rx,0,8,7C,24,07,0A,FE,FF,01,00,
2626341,000002A0,false,Rx,0,8,00,60,03,01,00,FE,FF,21,
2627923,000002A0,false,Rx,0,8,00,61,04,01,00,FE,FF,21,
2629751,000002A0,false,Rx,0,8,00,62,05,01,00,FE,FF,21,
2631570,000002A0,false,Rx,0,8,00,63,06,01,00,FE,FF,21,
2633389,000002A0,false,Rx,0,8,00,64,07,01,00,FE,FF,21,
2644941,00000312,false,Rx,0,8,00,10,8E,17,00,FF,00,09,
2646102,000003F3,false,Rx,0,8,7C,24,08,0B,FE,FF,01,00,
2646337,000002A0,false,Rx,0,8,00,65,08,01,00,FE,FF,21,
2647927,000002A0,false,Rx,0,8,00,66,09,01,00,FE,FF,21,
2649744,000002A0,false,Rx,0,8,00,67,0A,01,00,FE,FF,21,
2651572,000002A0,false,Rx,0,8,00,68,0B,01,00,FE,FF,21,
2653391,000002A0,false,Rx,0,8,00,69,0C,01,00,FE,FF,21,
2654982,00000422,false,Rx,0,8,00,00,00,00,00,00,00,67,
2664939,00000312,false,Rx,0,8,00,10,8E,18,00,FF,00,0A,
2666100,000003F3,false,Rx,0,8,7C,24,09,0C,FE,FF,01,00,
2666337,000002A0,false,Rx,0,8,00,6A,0D,01,00,FE,FF,21,
2667925,000002A0,false,Rx,0,8,00,6B,0E,01,00,FE,FF,21,
2669752,000002A0,false,Rx,0,8,00,6C,0F,01,00,FE,FF,21,
2671570,000002A0,false,Rx,0,8,00,6D,10,01,00,FE,FF,21,
2673389,000002A0,false,Rx,0,8,00,6E,11,01,00,FE,FF,21,
2684982,00000312,false,Rx,0,8,00,10,8E,19,00,FF,00,0B,
2685234,00000422,false,Rx,0,8,00,00,00,00,00,00,00,67,
2686147,000003F3,false,Rx,0,8,7C,24,0A,0D,FE,FF,01,00,
2686394,00000299,false,Rx,0,8,00,00,00,00,00,00,18,74,
2687975,000002A0,false,Rx,0,8,00,60,03,01,00,FE,FF,21,
2689791,000002A0,false,Rx,0,8,00,61,04,01,00,FE,FF,21,
2691610,000002A0,false,Rx,0,8,00,62,05,01,00,FE,FF,21,
2693439,000002A0,false,Rx,0,8,00,63,06,01,00,FE,FF,21,
2704900,00000312,false,Rx,0,8,00,10,8E,1A,00,FF,00,0C,
2706061,000003F3,false,Rx,0,8,7C,24,0B,0E,FE,FF,01,00,
2706298,000002A0,false,Rx,0,8,00,64,07,01,00,FE,FF,21,
2707887,000002A0,false,Rx,0,8,00,65,08,01,00,FE,FF,21,
2709713,000002A0,false,Rx,0,8,00,66,09,01,00,FE,FF,21,
2711531,000002A0,false,Rx,0,8,00,67,0A,01,00,FE,FF,21,
2713351,000002A0,false,Rx,0,8,00,68,0B,01,00,FE,FF,21,
2714911,00000422,false,Rx,0,8,00,00,00,00,00,00,00,67,
2724940,00000312,false,Rx,0,8,00,10,8E,1B,00,FF,00,0D,
2726101,000003F3,false,Rx,0,8,7C,24,0C,0F,FE,FF,01,00,
2726338,000002A0,false,Rx,0,8,00,69,0C,01,00,FE,FF,21,
2727928,000002A0,false,Rx,0,8,00,6A,0D,01,00,FE,FF,21,
2729746,000002A0,false,Rx,0,8,00,6B,0E,01,00,FE,FF,21,
2731564,000002A0,false,Rx,0,8,00,6C,0F,01,00,FE,FF,21,
2733394,000002A0,false,Rx,0,8,00,6D,10,01,00,FE,FF,21,
2744946,00000312,false,Rx,0,8,00,10,8E,1C,00,FF,00,0E,
2745188,00000422,false,Rx,0,8,00,00,00,00,00,00,00,67,
2746101,000003F3,false,Rx,0,8,7C,24,0D,10,FE,FF,01,00,
2746338,000002A0,false,Rx,0,8,00,6E,11,01,00,FE,FF,21,
2747939,00000299,false,Rx,0,8,00,00,00,00,00,00,18,74,
2749756,000002A0,false,Rx,0,8,00,60,03,01,00,FE,FF,21,
2751574,000002A0,false,Rx,0,8,00,61,04,01,00,FE,FF,21,
2753394,000002A0,false,Rx,0,8,00,62,05,01,00,FE,FF,21,
2764946,00000312,false,Rx,0,8,00,10,8E,1D,00,FF,00,0F,
2766107,000003F3,false,Rx,0,8,7C,24,0E,11,FE,FF,01,00,
2766344,000002A0,false,Rx,0,8,00,63,06,01,00,FE,FF,21,
2767933,000002A0,false,Rx,0,8,00,64,07,01,00,FE,FF,21,
2769750,000002A0,false,Rx,0,8,00,65,08,01,00,FE,FF,21,
2771569,000002A0,false,Rx,0,8,00,66,09,01,00,FE,FF,21,
2773387,000002A0,false,Rx,0,8,00,67,0A,01,00,FE,FF,21,
2774946,00000422,false,Rx,0,8,00,00,00,00,00,00,00,67,
2784985,00000312,false,Rx,0,8,00,10,8E,1E,00,BF,40,50,
2786147,000003F3,false,Rx,0,8,7C,24,00,03,FE,FF,01,00,
2786393,000002A0,false,Rx,0,8,00,68,0B,01,00,FE,FF,21,
2787973,000002A0,false,Rx,0,8,00,69,0C,01,00,FE,FF,21,
2789790,000002A0,false,Rx,0,8,00,6A,0D,01,00,FE,FF,21,
2791610,000002A0,false,Rx,0,8,00,6B,0E,01,00,FE,FF,21,
2793439,000002A0,false,Rx,0,8,00,6C,0F,01,00,FE,FF,21,
2804941,00000312,false,Rx,0,8,00,10,8E,10,00,BF,40,42,
2805183,00000422,false,Rx,0,8,00,00,00,00,00,00,00,67,
2806106,000003F3,false,Rx,0,8,7C,24,01,04,FE,FF,01,00,
2806343,000002A0,false,Rx,0,8,00,62,05,01,00,FE,FF,21,
2807934,000002A0,false,Rx,0,8,00,63,06,01,00,FE,FF,21,
2809752,000002A0,false,Rx,0,8,00,64,07,01,00,FE,FF,21,
2811571,000002A0,false,Rx,0,8,00,65,08,01,00,FE,FF,21,
2813389,000002A0,false,Rx,0,8,00,66,09,01,00,FE,FF,21,
2824943,00000312,false,Rx,0,8,00,10,8D,21,00,FF,00,04,
2826105,000003F3,false,Rx,0,8,7C,25,0B,0F,FD,FF,02,00,
2826331,000002A0,false,Rx,0,8,00,67,0B,02,00,FD,FF,21,
2827930,000002A0,false,Rx,0,8,00,68,0C,02,00,FD,FF,21,
2829746,000002A0,false,Rx,0,8,00,69,0D,02,00,FD,FF,21,
2831566,000002A0,false,Rx,0,8,00,6A,0E,02,00,FD,FF,21,
2833393,000002A0,false,Rx,0,8,00,6B,0F,02,00,FD,FF,21,
2834943,00000422,false,Rx,0,8,00,00,00,00,00,00,00,67,
2844941,00000312,false,Rx,0,8,00,10,8D,22,00,FF,00,05,
2846103,000003F3,false,Rx,0,8,7C,25,0C,10,FD,FF,02,00,
2846339,000002A0,false,Rx,0,8,00,6C,10,02,00,FD,FF,21,
2847918,000002A0,false,Rx,0,8,00,6D,11,02,00,FD,FF,21,
2849745,000002A0,false,Rx,0,8,00,6E,12,02,00,FD,FF,21,
2851575,00000299,false,Rx,0,8,00,00,00,00,00,00,18,74,
2853393,000002A0,false,Rx,0,8,00,60,04,02,00,FD,FF,21,
2864905,00000312,false,Rx,0,8,00,20,8D,23,00,FF,00,05,
2865147,00000422,false,Rx,0,8,00,00,00,00,00,00,00,67,
2866061,000003F3,false,Rx,0,8,7C,25,0D,11,FD,FF,02,00,
2866297,000002A0,false,Rx,0,8,00,61,05,02,00,FD,FF,21,
2867898,000002A0,false,Rx,0,8,00,62,06,02,00,FD,FF,21,
2869714,000002A0,false,Rx,0,8,00,63,07,02,00,FD,FF,21,
2871535,000002A0,false,Rx,0,8,00,64,08,02,00,FD,FF,21,
2873353,000002A0,false,Rx,0,8,00,65,09,02,00,FD,FF,21,
2884967,00000312,false,Rx,0,8,00,10,8D,24,00,FF,00,07,
2886119,000003F3,false,Rx,0,8,7C,25,0E,12,FD,FF,02,00,
2886355,000002A0,false,Rx,0,8,00,66,0A,02,00,FD,FF,21,
2887943,000002A0,false,Rx,0,8,00,67,0B,02,00,FD,FF,21,
2889771,000002A0,false,Rx,0,8,00,68,0C,02,00,FD,FF,21,
2891590,000002A0,false,Rx,0,8,00,69,0D,02,00,FD,FF,21,
2893409,000002A0,false,Rx,0,8,00,6A,0E,02,00,FD,FF,21,
2894949,00000422,false,Rx,0,8,00,00,00,00,00,00,00,67,
2904936,00000312,false,Rx,0,8,00,10,8D,25,00,FF,00,08,
2906098,000003F3,false,Rx,0,8,7C,25,00,04,FD,FF,02,00,
2906344,000002A0,false,Rx,0,8,00,6B,0F,02,00,FD,FF,21,
2907932,000002A0,false,Rx,0,8,00,6C,10,02,00,FD,FF,21,
2909739,000002A0,false,Rx,0,8,00,6D,11,02,00,FD,FF,21,
2911570,000002A0,false,Rx,0,8,00,6E,12,02,00,FD,FF,21,
2913398,00000299,false,Rx,0,8,00,00,00,00,00,00,18,74,
2924941,00000312,false,Rx,0,8,00,10,8D,26,00,FF,00,09,
2925184,00000422,false,Rx,0,8,00,00,00,00,00,00,00,67,
2926097,000003F3,false,Rx,0,8,7C,25,01,05,FD,FF,02,00,
2926343,000002A0,false,Rx,0,8,00,60,04,02,00,FD,FF,21,
2927923,000002A0,false,Rx,0,8,00,61,05,02,00,FD,FF,21,
2929750,000002A0,false,Rx,0,8,00,62,06,02,00,FD,FF,21,
2931570,000002A0,false,Rx,0,8,00,63,07,02,00,FD,FF,21,
2933388,000002A0,false,Rx,0,8,00,64,08,02,00,FD,FF,21,
2944941,00000312,false,Rx,0,8,00,10,8D,27,00,FF,00,0A,
2946103,000003F3,false,Rx,0,8,7C,25,02,06,FD,FF,02,00,
2946349,000002A0,false,Rx,0,8,00,65,09,02,00,FD,FF,21,
2947928,000002A0,false,Rx,0,8,00,66,0A,02,00,FD,FF,21,
2949746,000002A0,false,Rx,0,8,00,67,0B,02,00,FD,FF,21,
2951575,000002A0,false,Rx,0,8,00,68,0C,02,00,FD,FF,21,
2953393,000002A0,false,Rx,0,8,00,69,0D,02,00,FD,FF,21,
2954953,00000422,false,Rx,0,8,00,00,00,00,00,00,00,67,
2964941,00000312,false,Rx,0,8,00,10,8D,28,00,FF,00,0B,
2966103,000003F3,false,Rx,0,8,7C,25,03,07,FD,FF,02,00,
2966349,000002A0,false,Rx,0,8,00,6A,0E,02,00,FD,FF,21,
2967928,000002A0,false,Rx,0,8,00,6B,0F,02,00,FD,FF,21,
2969746,000002A0,false,Rx,0,8,00,6C,10,02,00,FD,FF,21,
2971565,000002A0,false,Rx,0,8,00,6D,11,02,00,FD,FF,21,
2973393,000002A0,false,Rx,0,8,00,6E,12,02,00,FD,FF,21,
2984985,00000312,false,Rx,0,8,00,10,8D,29,00,FF,00,0C,
2985228,00000422,false,Rx,0,8,00,00,00,00,00,00,00,67,
2986141,000003F3,false,Rx,0,8,7C,25,04,08,FD,FF,02,00,
2986387,00000299,false,Rx,0,8,00,00,00,00,00,00,18,74,
2987967,000002A0,false,Rx,0,8,00,60,04,02,00,FD,FF,21,
2989796,000002A0,false,Rx,0,8,00,61,05,02,00,FD,FF,21,
2991614,000002A0,false,Rx,0,8,00,62,06,02,00,FD,FF,21,
2993432,000002A0,false,Rx,0,8,00,63,07,02,00,FD,FF,21,
3004934,00000312,false,Rx,0,8,00,10,8D,2A,00,FF,00,0D,
3006096,000003F3,false,Rx,0,8,7C,25,05,09,FD,FF,02,00,
3006332,000002A0,false,Rx,0,8,00,64,08,02,00,FD,FF,21,
3007920,000002A0,false,Rx,0,8,00,65,09,02,00,FD,FF,21,
3009738,000002A0,false,Rx,0,8,00,66,0A,02,00,FD,FF,21,
3011556,000002A0,false,Rx,0,8,00,67,0B,02,00,FD,FF,21,
3013384,000002A0,false,Rx,0,8,00,68,0C,02,00,FD,FF,21,
3014914,00000422,false,Rx,0,8,00,00,00,00,00,00,00,67,
3024863,00000312,false,Rx,0,8,00,10,8D,2B,00,FF,00,0E,
3026015,000003F3,false,Rx,0,8,7C,25,06,0A,FD,FF,02,00,
3026261,000002A0,false,Rx,0,8,00,69,0D,02,00,FD,FF,21,
3027839,000002A0,false,Rx,0,8,00,6A,0E,02,00,FD,FF,21,
3029668,000002A0,false,Rx,0,8,00,6B,0F,02,00,FD,FF,21,
3031486,000002A0,false,Rx,0,8,00,6C,10,02,00,FD,FF,21,
3033304,000002A0,false,Rx,0,8,00,6D,11,02,00,FD,FF,21,
3044988,00000312,false,Rx,0,8,00,10,8D,2C,00,FF,00,0F,
3045240,00000422,false,Rx,0,8,00,00,00,00,00,00,00,67,
3046153,000003F3,false,Rx,0,8,7C,25,07,0B,FD,FF,02,00,
3046389,000002A0,false,Rx,0,8,00,6E,12,02,00,FD,FF,21,
3047980,00000299,false,Rx,0,8,00,00,00,00,00,00,18,74,
3049798,000002A0,false,Rx,0,8,00,60,04,02,00,FD,FF,21,
3051616,000002A0,false,Rx,0,8,00,61,05,02,00,FD,FF,21,
3053445,000002A0,false,Rx,0,8,00,62,06,02,00,FD,FF,21,
3064946,00000312,false,Rx,0,8,00,10,8D,2D,00,FF,00,10,
3066099,000003F3,false,Rx,0,8,7C,25,08,0C,FD,FF,02,00,
3066335,000002A0,false,Rx,0,8,00,63,07,02,00,FD,FF,21,
3067923,000002A0,false,Rx,0,8,00,64,08,02,00,FD,FF,21,
3069751,000002A0,false,Rx,0,8,00,65,09,02,00,FD,FF,21,
3071570,000002A0,false,Rx,0,8,00,66,0A,02,00,FD,FF,21,
3073389,000002A0,false,Rx,0,8,00,67,0B,02,00,FD,FF,21,
3074949,00000422,false,Rx,0,8,00,00,00,00,00,00,00,67,
3084988,00000312,false,Rx,0,8,00,10,8D,2E,00,FF,00,11,
3086139,000003F3,false,Rx,0,8,7C,25,09,0D,FD,FF,02,00,
3086385,000002A0,false,Rx,0,8,00,68,0C,02,00,FD,FF,21,
3087975,000002A0,false,Rx,0,8,00,69,0D,02,00,FD,FF,21,
3089792,000002A0,false,Rx,0,8,00,6A,0E,02,00,FD,FF,21,
3091610,000002A0,false,Rx,0,8,00,6B,0F,02,00,FD,FF,21,
3093440,000002A0,false,Rx,0,8,00,6C,10,02,00,FD,FF,21,
3104941,00000312,false,Rx,0,8,00,10,8D,20,00,FF,00,03,
3105183,00000422,false,Rx,0,8,00,00,00,00,00,00,00,67,
3106096,000003F3,false,Rx,0,8,7C,25,0A,0E,FD,FF,02,00,
3106342,000002A0,false,Rx,0,8,00,62,06,02,00,FD,FF,21,
3107923,000002A0,false,Rx,0,8,00,63,07,02,00,FD,FF,21,
3109741,000002A0,false,Rx,0,8,00,64,08,02,00,FD,FF,21,
3111570,000002A0,false,Rx,0,8,00,65,09,02,00,FD,FF,21,
3113389,000002A0,false,Rx,0,8,00,66,0A,02,00,FD,FF,21,
3124940,00000312,false,Rx,0,8,00,10,8D,21,00,FF,00,04,
3126091,000003F3,false,Rx,0,8,7C,25,0B,0F,FD,FF,02,00,
3126327,000002A0,false,Rx,0,8,00,67,0B,02,00,FD,FF,21,
3127927,000002A0,false,Rx,0,8,00,68,0C,02,00,FD,FF,21,
3129744,000002A0,false,Rx,0,8,00,69,0D,02,00,FD,FF,21,
3131562,000002A0,false,Rx,0,8,00,6A,0E,02,00,FD,FF,21,
3133392,000002A0,false,Rx,0,8,00,6B,0F,02,00,FD,FF,21,
3134951,00000422,false,Rx,0,8,00,00,00,00,00,00,00,67,
3144940,00000312,false,Rx,0,8,00,10,8D,22,00,FF,00,05,
3146101,000003F3,false,Rx,0,8,7C,25,0C,10,FD,FF,02,00,
3146338,000002A0,false,Rx,0,8,00,6C,10,02,00,FD,FF,21,
3147927,000002A0,false,Rx,0,8,00,6D,11,02,00,FD,FF,21,
3149744,000002A0,false,Rx,0,8,00,6E,12,02,00,FD,FF,21,
3151572,00000299,false,Rx,0,8,00,00,00,00,00,00,18,74,
3153391,000002A0,false,Rx,0,8,00,60,04,02,00,FD,FF,21,
3164943,00000312,false,Rx,0,8,00,10,8D,23,00,FF,00,06,
3165195,00000422,false,Rx,0,8,00,00,00,00,00,00,00,67,
3166099,000003F3,false,Rx,0,8,7C,25,0D,11,FD,FF,02,00,
3166346,000002A0,false,Rx,0,8,00,61,05,02,00,FD,FF,21,
3167937,000002A0,false,Rx,0,8,00,62,06,02,00,FD,FF,21,
3169754,000002A0,false,Rx,0,8,00,63,07,02,00,FD,FF,21,
3171572,000002A0,false,Rx,0,8,00,64,08,02,00,FD,FF,21,
3173391,000002A0,false,Rx,0,8,00,65,09,02,00,FD,FF,21,
3184864,00000312,false,Rx,0,8,00,10,8D,24,00,FF,00,07,
3186015,000003F3,false,Rx,0,8,7C,25,0E,12,FD,FF,02,00,
3186251,000002A0,false,Rx,0,8,00,66,0A,02,00,FD,FF,21,
3187840,000002A0,false,Rx,0,8,00,67,0B,02,00,FD,FF,21,
3189669,000002A0,false,Rx,0,8,00,68,0C,02,00,FD,FF,21,
3191487,000002A0,false,Rx,0,8,00,69,0D,02,00,FD,FF,21,
3193306,000002A0,false,Rx,0,8,00,6A,0E,02,00,FD,FF,21,
3194936,00000422,false,Rx,0,8,00,00,00,00,00,00,00,67,
3204935,00000312,false,Rx,0,8,00,10,8D,25,00,FF,00,08,
3206096,000003F3,false,Rx,0,8,7C,25,00,04,FD,FF,02,00,
3206343,000002A0,false,Rx,0,8,00,6B,0F,02,00,FD,FF,21,
3207922,000002A0,false,Rx,0,8,00,6C,10,02,00,FD,FF,21,
3209739,000002A0,false,Rx,0,8,00,6D,11,02,00,FD,FF,21,
3211567,000002A0,false,Rx,0,8,00,6E,12,02,00,FD,FF,21,
3213396,00000299,false,Rx,0,8,00,00,00,00,00,00,18,74,
3224938,00000312,false,Rx,0,8,00,10,8D,26,00,FF,00,09,
3225190,00000422,false,Rx,0,8,00,00,00,00,00,00,00,67,
3226104,000003F3,false,Rx,0,8,7C,25,01,05,FD,FF,02,00,
3226341,000002A0,false,Rx,0,8,00,60,04,02,00,FD,FF,21,
3227932,000002A0,false,Rx,0,8,00,61,05,02,00,FD,FF,21,
3229749,000002A0,false,Rx,0,8,00,62,06,02,00,FD,FF,21,
3231567,000002A0,false,Rx,0,8,00,63,07,02,00,FD,FF,21,
3233386,000002A0,false,Rx,0,8,00,64,08,02,00,FD,FF,21,
3244979,00000312,false,Rx,0,8,00,10,8D,27,00,FF,00,0A,
3246150,000003F3,false,Rx,0,8,7C,25,02,06,FD,FF,02,00,
3246387,000002A0,false,Rx,0,8,00,65,09,02,00,FD,FF,21,
3247965,000002A0,false,Rx,0,8,00,66,0A,02,00,FD,FF,21,
3249782,000002A0,false,Rx,0,8,00,67,0B,02,00,FD,FF,21,
3251611,000002A0,false,Rx,0,8,00,68,0C,02,00,FD,FF,21,
3253429,000002A0,false,Rx,0,8,00,69,0D,02,00,FD,FF,21,
3254949,00000422,false,Rx,0,8,00,00,00,00,00,00,00,67,
3264939,00000312,false,Rx,0,8,00,10,8D,28,00,FF,00,0B,
3266110,000003F3,false,Rx,0,8,7C,25,03,07,FD,FF,02,00,
3266347,000002A0,false,Rx,0,8,00,6A,0E,02,00,FD,FF,21,
3267925,000002A0,false,Rx,0,8,00,6B,0F,02,00,FD,FF,21,
3269752,000002A0,false,Rx,0,8,00,6C,10,02,00,FD,FF,21,
3271571,000002A0,false,Rx,0,8,00,6D,11,02,00,FD,FF,21,
3273389,000002A0,false,Rx,0,8,00,6E,12,02,00,FD,FF,21,
3284961,00000312,false,Rx,0,8,00,10,8D,29,00,FF,00,0C,
3285213,00000422,false,Rx,0,8,00,00,00,00,00,00,00,67,
3286128,000003F3,false,Rx,0,8,7C,25,04,08,FD,FF,02,00,
3286373,00000299,false,Rx,0,8,00,00,00,00,00,00,18,74,
3287954,000002A0,false,Rx,0,8,00,60,04,02,00,FD,FF,21,
3289771,000002A0,false,Rx,0,8,00,61,05,02,00,FD,FF,21,
3291601,000002A0,false,Rx,0,8,00,62,06,02,00,FD,FF,21,
3293419,000002A0,false,Rx,0,8,00,63,07,02,00,FD,FF,21,
3304939,00000312,false,Rx,0,8,00,10,8D,2A,00,FF,00,0D,
3306102,000003F3,false,Rx,0,8,7C,25,05,09,FD,FF,02,00,
3306337,000002A0,false,Rx,0,8,00,64,08,02,00,FD,FF,21,
3307926,000002A0,false,Rx,0,8,00,65,09,02,00,FD,FF,21,
3309743,000002A0,false,Rx,0,8,00,66,0A,02,00,FD,FF,21,
3311562,000002A0,false,Rx,0,8,00,67,0B,02,00,FD,FF,21,
3313390,000002A0,false,Rx,0,8,00,68,0C,02,00,FD,FF,21,
3314990,00000422,false,Rx,0,8,00,00,00,00,00,00,00,67,
3324961,00000312,false,Rx,0,8,00,10,8D,2B,00,FF,00,0E,
3326123,000003F3,false,Rx,0,8,7C,25,06,0A,FD,FF,02,00,
3326359,000002A0,false,Rx,0,8,00,69,0D,02,00,FD,FF,21,
3327948,000002A0,false,Rx,0,8,00,6A,0E,02,00,FD,FF,21,
3329765,000002A0,false,Rx,0,8,00,6B,0F,02,00,FD,FF,21,
3331595,000002A0,false,Rx,0,8,00,6C,10,02,00,FD,FF,21,
3333414,000002A0,false,Rx,0,8,00,6D,11,02,00,FD,FF,21,
3344915,00000312,false,Rx,0,8,00,10,8D,2C,00,FF,00,0F,
3345157,00000422,false,Rx,0,8,00,00,00,00,00,00,00,67,
3346071,000003F3,false,Rx,0,8,7C,25,07,0B,FD,FF,02,00,
3346307,000002A0,false,Rx,0,8,00,6E,12,02,00,FD,FF,21,
3347908,00000299,false,Rx,0,8,00,00,00,00,00,00,18,74,
3349725,000002A0,false,Rx,0,8,00,60,04,02,00,FD,FF,21,
3351545,000002A0,false,Rx,0,8,00,61,05,02,00,FD,FF,21,
3353363,000002A0,false,Rx,0,8,00,62,06,02,00,FD,FF,21,
3364936,00000312,false,Rx,0,8,00,10,8D,2D,00,FF,00,10,
3366098,000003F3,false,Rx,0,8,7C,25,08,0C,FD,FF,02,00,
3366334,000002A0,false,Rx,0,8,00,63,07,02,00,FD,FF,21,
3367923,000002A0,false,Rx,0,8,00,64,08,02,00,FD,FF,21,
3369750,000002A0,false,Rx,0,8,00,65,09,02,00,FD,FF,21,
3371570,000002A0,false,Rx,0,8,00,66,0A,02,00,FD,FF,21,
3373389,000002A0,false,Rx,0,8,00,67,0B,02,00,FD,FF,21,
3374949,00000422,false,Rx,0,8,00,00,00,00,00,00,00,67,
3384936,00000312,false,Rx,0,8,00,10,8D,2E,00,FF,00,11,
3386098,000003F3,false,Rx,0,8,7C,25,09,0D,FD,FF,02,00,
3386334,000002A0,false,Rx,0,8,00,68,0C,02,00,FD,FF,21,
3387922,000002A0,false,Rx,0,8,00,69,0D,02,00,FD,FF,21,
3389749,000002A0,false,Rx,0,8,00,6A,0E,02,00,FD,FF,21,
3391568,000002A0,false,Rx,0,8,00,6B,0F,02,00,FD,FF,21,
3393386,000002A0,false,Rx,0,8,00,6C,10,02,00,FD,FF,21,
3404939,00000312,false,Rx,0,8,00,10,8D,20,00,FF,00,03,
3405193,00000422,false,Rx,0,8,00,00,00,00,00,00,00,67,
3406106,000003F3,false,Rx,0,8,7C,25,0A,0E,FD,FF,02,00,
3406342,000002A0,false,Rx,0,8,00,62,06,02,00,FD,FF,21,
3407933,000002A0,false,Rx,0,8,00,63,07,02,00,FD,FF,21,
3409750,000002A0,false,Rx,0,8,00,64,08,02,00,FD,FF,21,
3411570,000002A0,false,Rx,0,8,00,65,09,02,00,FD,FF,21,
3413388,000002A0,false,Rx,0,8,00,66,0A,02,00,FD,FF,21,
3424941,00000312,false,Rx,0,8,00,10,8D,21,00,FF,00,04,
3426093,000003F3,false,Rx,0,8,7C,25,0B,0F,FD,FF,02,00,
3426329,000002A0,false,Rx,0,8,00,67,0B,02,00,FD,FF,21,
3427928,000002A0,false,Rx,0,8,00,68,0C,02,00,FD,FF,21,
3429746,000002A0,false,Rx,0,8,00,69,0D,02,00,FD,FF,21,
3431565,000002A0,false,Rx,0,8,00,6A,0E,02,00,FD,FF,21,
3433383,000002A0,false,Rx,0,8,00,6B,0F,02,00,FD,FF,21,
3434943,00000422,false,Rx,0,8,00,00,00,00,00,00,00,67,
3444982,00000312,false,Rx,0,8,00,10,8D,22,00,FF,00,05,
3446144,000003F3,false,Rx,0,8,7C,25,0C,10,FD,FF,02,00,
3446380,000002A0,false,Rx,0,8,00,6C,10,02,00,FD,FF,21,
3447968,000002A0,false,Rx,0,8,00,6D,11,02,00,FD,FF,21,
3449787,000002A0,false,Rx,0,8,00,6E,12,02,00,FD,FF,21,
3451615,00000299,false,Rx,0,8,00,00,00,00,00,00,18,74,
3453433,000002A0,false,Rx,0,8,00,60,04,02,00,FD,FF,21,
3464944,00000312,false,Rx,0,8,00,10,8D,23,00,FF,00,06,
3465187,00000422,false,Rx,0,8,00,00,00,00,00,00,00,67,
3466100,000003F3,false,Rx,0,8,7C,25,0D,11,FD,FF,02,00,
3466336,000002A0,false,Rx,0,8,00,61,05,02,00,FD,FF,21,
3467927,000002A0,false,Rx,0,8,00,62,06,02,00,FD,FF,21,
3469745,000002A0,false,Rx,0,8,00,63,07,02,00,FD,FF,21,
3471573,000002A0,false,Rx,0,8,00,64,08,02,00,FD,FF,21,
3473391,000002A0,false,Rx,0,8,00,65,09,02,00,FD,FF,21,
3484964,00000312,false,Rx,0,8,00,10,8D,24,00,FF,00,07,
3486126,000003F3,false,Rx,0,8,7C,25,0E,12,FD,FF,02,00,
3486362,000002A0,false,Rx,0,8,00,66,0A,02,00,FD,FF,21,
3487951,000002A0,false,Rx,0,8,00,67,0B,02,00,FD,FF,21,
3489769,000002A0,false,Rx,0,8,00,68,0C,02,00,FD,FF,21,
3491597,000002A0,false,Rx,0,8,00,69,0D,02,00,FD,FF,21,
3493415,000002A0,false,Rx,0,8,00,6A,0E,02,00,FD,FF,21,
3494914,00000422,false,Rx,0,8,00,00,00,00,00,00,00,67,
3504914,00000312,false,Rx,0,8,00,10,8D,25,00,FF,00,08,
3506076,000003F3,false,Rx,0,8,7C,25,00,04,FD,FF,02,00,
3506312,000002A0,false,Rx,0,8,00,6B,0F,02,00,FD,FF,21,
3507900,000002A0,false,Rx,0,8,00,6C,10,02,00,FD,FF,21,
3509719,000002A0,false,Rx,0,8,00,6D,11,02,00,FD,FF,21,
3511537,000002A0,false,Rx,0,8,00,6E,12,02,00,FD,FF,21,
3513365,00000299,false,Rx,0,8,00,00,00,00,00,00,18,74,
3524936,00000312,false,Rx,0,8,00,10,8D,26,00,FF,00,09,
3525190,00000422,false,Rx,0,8,00,00,00,00,00,00,00,67,
3526102,000003F3,false,Rx,0,8,7C,25,01,05,FD,FF,02,00,
3526338,000002A0,false,Rx,0,8,00,60,04,02,00,FD,FF,21,
3527929,000002A0,false,Rx,0,8,00,61,05,02,00,FD,FF,21,
3529747,000002A0,false,Rx,0,8,00,62,06,02,00,FD,FF,21,
3531565,000002A0,false,Rx,0,8,00,63,07,02,00,FD,FF,21,
3533393,000002A0,false,Rx,0,8,00,64,08,02,00,FD,FF,21,
3544986,00000312,false,Rx,0,8,00,10,8D,27,00,FF,00,0A,
3546147,000003F3,false,Rx,0,8,7C,25,02,06,FD,FF,02,00,
3546382,000002A0,false,Rx,0,8,00,65,09,02,00,FD,FF,21,
3547971,000002A0,false,Rx,0,8,00,66,0A,02,00,FD,FF,21,
3549789,000002A0,false,Rx,0,8,00,67,0B,02,00,FD,FF,21,
3551617,000002A0,false,Rx,0,8,00,68,0C,02,00,FD,FF,21,
3553437,000002A0,false,Rx,0,8,00,69,0D,02,00,FD,FF,21,
3554946,00000422,false,Rx,0,8,00,00,00,00,00,00,00,67,
3564936,00000312,false,Rx,0,8,00,10,8D,28,00,FF,00,0B,
3566107,000003F3,false,Rx,0,8,7C,25,03,07,FD,FF,02,00,
3566342,000002A0,false,Rx,0,8,00,6A,0E,02,00,FD,FF,21,
3567921,000002A0,false,Rx,0,8,00,6B,0F,02,00,FD,FF,21,
3569749,000002A0,false,Rx,0,8,00,6C,10,02,00,FD,FF,21,
3571567,000002A0,false,Rx,0,8,00,6D,11,02,00,FD,FF,21,
3573386,000002A0,false,Rx,0,8,00,6E,12,02,00,FD,FF,21,
3584941,00000312,false,Rx,0,8,00,10,8D,29,00,FF,00,0C,
3585193,00000422,false,Rx,0,8,00,00,00,00,00,00,00,67,
3586106,000003F3,false,Rx,0,8,7C,25,04,08,FD,FF,02,00,
3586342,00000299,false,Rx,0,8,00,00,00,00,00,00,18,74,
3587933,000002A0,false,Rx,0,8,00,60,04,02,00,FD,FF,21,
3589751,000002A0,false,Rx,0,8,00,61,05,02,00,FD,FF,21,
3591570,000002A0,false,Rx,0,8,00,62,06,02,00,FD,FF,21,
3593389,000002A0,false,Rx,0,8,00,63,07,02,00,FD,FF,21,
3604940,00000312,false,Rx,0,8,00,10,8D,2A,00,FF,00,0D,
3606101,000003F3,false,Rx,0,8,7C,25,05,09,FD,FF,02,00,
3606337,000002A0,false,Rx,0,8,00,64,08,02,00,FD,FF,21,
3607927,000002A0,false,Rx,0,8,00,65,09,02,00,FD,FF,21,
3609744,000002A0,false,Rx,0,8,00,66,0A,02,00,FD,FF,21,
3611561,000002A0,false,Rx,0,8,00,67,0B,02,00,FD,FF,21,
3613391,000002A0,false,Rx,0,8,00,68,0C,02,00,FD,FF,21,
3614991,00000422,false,Rx,0,8,00,00,00,00,00,00,00,67,
3624940,00000312,false,Rx,0,8,00,10,8D,2B,00,FF,00,0E,
3626101,000003F3,false,Rx,0,8,7C,25,06,0A,FD,FF,02,00,
3626338,000002A0,false,Rx,0,8,00,69,0D,02,00,FD,FF,21,
3627927,000002A0,false,Rx,0,8,00,6A,0E,02,00,FD,FF,21,
3629743,000002A0,false,Rx,0,8,00,6B,0F,02,00,FD,FF,21,
3631572,000002A0,false,Rx,0,8,00,6C,10,02,00,FD,FF,21,
3633381,000002A0,false,Rx,0,8,00,6D,11,02,00,FD,FF,21,
3644913,00000312,false,Rx,0,8,00,10,8D,2C,00,FF,00,0F,
3645155,00000422,false,Rx,0,8,00,00,00,00,00,00,00,67,
3646068,000003F3,false,Rx,0,8,7C,25,07,0B,FD,FF,02,00,
3646305,000002A0,false,Rx,0,8,00,6E,12,02,00,FD,FF,21,
3647896,00000299,false,Rx,0,8,00,00,00,00,00,00,18,74,
3649723,000002A0,false,Rx,0,8,00,60,04,02,00,FD,FF,21,
3651540,000002A0,false,Rx,0,8,00,61,05,02,00,FD,FF,21,
3653360,000002A0,false,Rx,0,8,00,62,06,02,00,FD,FF,21,
3664923,00000312,false,Rx,0,8,00,10,8D,2D,00,FF,00,10,
3666084,000003F3,false,Rx,0,8,7C,25,08,0C,FD,FF,02,00,
3666321,000002A0,false,Rx,0,8,00,63,07,02,00,FD,FF,21,
3667909,000002A0,false,Rx,0,8,00,64,08,02,00,FD,FF,21,
3669726,000002A0,false,Rx,0,8,00,65,09,02,00,FD,FF,21,
3671554,000002A0,false,Rx,0,8,00,66,0A,02,00,FD,FF,21,
3673374,000002A0,false,Rx,0,8,00,67,0B,02,00,FD,FF,21,
3674994,00000422,false,Rx,0,8,00,00,00,00,00,00,00,67,
3684941,00000312,false,Rx,0,8,00,10,8D,2E,00,FF,00,11,
3686092,000003F3,false,Rx,0,8,7C,25,09,0D,FD,FF,02,00,
3686339,000002A0,false,Rx,0,8,00,68,0C,02,00,FD,FF,21,
3687928,000002A0,false,Rx,0,8,00,69,0D,02,00,FD,FF,21,
3689745,000002A0,false,Rx,0,8,00,6A,0E,02,00,FD,FF,21,
3691564,000002A0,false,Rx,0,8,00,6B,0F,02,00,FD,FF,21,
3693393,000002A0,false,Rx,0,8,00,6C,10,02,00,FD,FF,21,
3704945,00000312,false,Rx,0,8,00,10,8D,20,00,FF,00,03,
3705187,00000422,false,Rx,0,8,00,00,00,00,00,00,00,67,
3706100,000003F3,false,Rx,0,8,7C,25,0A,0E,FD,FF,02,00,
3706347,000002A0,false,Rx,0,8,00,62,06,02,00,FD,FF,21,
3707928,000002A0,false,Rx,0,8,00,63,07,02,00,FD,FF,21,
3709745,000002A0,false,Rx,0,8,00,64,08,02,00,FD,FF,21,
3711573,000002A0,false,Rx,0,8,00,65,09,02,00,FD,FF,21,
3713394,000002A0,false,Rx,0,8,00,66,0A,02,00,FD,FF,21,
3724936,00000312,false,Rx,0,8,00,10,8D,21,00,FF,00,04,
3726097,000003F3,false,Rx,0,8,7C,25,0B,0F,FD,FF,02,00,
3726334,000002A0,false,Rx,0,8,00,67,0B,02,00,FD,FF,21,
3727933,000002A0,false,Rx,0,8,00,68,0C,02,00,FD,FF,21,
3729749,000002A0,false,Rx,0,8,00,69,0D,02,00,FD,FF,21,
3731569,000002A0,false,Rx,0,8,00,6A,0E,02,00,FD,FF,21,
3733387,000002A0,false,Rx,0,8,00,6B,0F,02,00,FD,FF,21,
3734947,00000422,false,Rx,0,8,00,00,00,00,00,00,00,67,
3744977,00000312,false,Rx,0,8,00,10,8D,22,00,FF,00,05,
3746137,000003F3,false,Rx,0,8,7C,25,0C,10,FD,FF,02,00,
3746385,000002A0,false,Rx,0,8,00,6C,10,02,00,FD,FF,21,
3747963,000002A0,false,Rx,0,8,00,6D,11,02,00,FD,FF,21,
3749790,000002A0,false,Rx,0,8,00,6E,12,02,00,FD,FF,21,
3751610,00000299,false,Rx,0,8,00,00,00,00,00,00,18,74,
3753429,000002A0,false,Rx,0,8,00,60,04,02,00,FD,FF,21,
3764941,00000312,false,Rx,0,8,00,10,8D,23,00,FF,00,06,
3765183,00000422,false,Rx,0,8,00,00,00,00,00,00,00,67,
3766096,000003F3,false,Rx,0,8,7C,25,0D,11,FD,FF,02,00,
3766333,000002A0,false,Rx,0,8,00,61,05,02,00,FD,FF,21,
3767924,000002A0,false,Rx,0,8,00,62,06,02,00,FD,FF,21,
3769751,000002A0,false,Rx,0,8,00,63,07,02,00,FD,FF,21,
3771570,000002A0,false,Rx,0,8,00,64,08,02,00,FD,FF,21,
3773388,000002A0,false,Rx,0,8,00,65,09,02,00,FD,FF,21,
3784941,00000312,false,Rx,0,8,00,10,8D,24,00,FF,00,07,
3786103,000003F3,false,Rx,0,8,7C,25,0E,12,FD,FF,02,00,
3786339,000002A0,false,Rx,0,8,00,66,0A,02,00,FD,FF,21,
3787928,000002A0,false,Rx,0,8,00,67,0B,02,00,FD,FF,21,
3789745,000002A0,false,Rx,0,8,00,68,0C,02,00,FD,FF,21,
3791565,000002A0,false,Rx,0,8,00,69,0D,02,00,FD,FF,21,
3793393,000002A0,false,Rx,0,8,00,6A,0E,02,00,FD,FF,21,
3794963,00000422,false,Rx,0,8,00,00,00,00,00,00,00,67,
3804901,00000312,false,Rx,0,8,00,10,8D,25,00,DF,20,28,
3806063,000003F3,false,Rx,0,8,7C,25,00,04,FD,FF,02,00,
3806299,000002A0,false,Rx,0,8,00,6B,0F,02,00,FD,FF,21,
3807887,000002A0,false,Rx,0,8,00,6C,10,02,00,FD,FF,21,
3809704,000002A0,false,Rx,0,8,00,6D,11,02,00,FD,FF,21,
3811525,000002A0,false,Rx,0,8,00,6E,12,02,00,FD,FF,21,
3813353,00000299,false,Rx,0,8,00,00,00,00,00,00,18,74,
3824927,00000312,false,Rx,0,8,00,10,8D,26,00,DF,20,29,
3825169,00000422,false,Rx,0,8,00,00,00,00,00,00,00,67,
3826083,000003F3,false,Rx,0,8,7C,25,01,05,FD,FF,02,00,
3826319,000002A0,false,Rx,0,8,00,60,04,02,00,FD,FF,21,
3827909,000002A0,false,Rx,0,8,00,61,05,02,00,FD,FF,21,
3829736,000002A0,false,Rx,0,8,00,62,06,02,00,FD,FF,21,
3831555,000002A0,false,Rx,0,8,00,63,07,02,00,FD,FF,21,
3833373,000002A0,false,Rx,0,8,00,64,08,02,00,FD,FF,21,
3844997,00000312,false,Rx,0,8,00,10,8C,37,00,FF,00,0B,
3846159,000003F3,false,Rx,0,8,7C,24,02,08,FB,FF,04,00,
3846395,000002A0,false,Rx,0,8,00,65,0B,04,00,FB,FF,21,
3847984,000002A0,false,Rx,0,8,00,66,0C,04,00,FB,FF,21,
3849802,000002A0,false,Rx,0,8,00,67,0D,04,00,FB,FF,21,
3851621,000002A0,false,Rx,0,8,00,68,0E,04,00,FB,FF,21,
3853449,000002A0,false,Rx,0,8,00,69,0F,04,00,FB,FF,21,
3854948,00000422,false,Rx,0,8,00,00,00,00,00,00,00,67,
3864936,00000312,false,Rx,0,8,00,10,8C,38,00,FF,00,0C,
3866099,000003F3,false,Rx,0,8,7C,24,03,09,FB,FF,04,00,
3866345,000002A0,false,Rx,0,8,00,6A,10,04,00,FB,FF,21,
3867923,000002A0,false,Rx,0,8,00,6B,11,04,00,FB,FF,21,
3869750,000002A0,false,Rx,0,8,00,6C,12,04,00,FB,FF,21,
3871570,000002A0,false,Rx,0,8,00,6D,13,04,00,FB,FF,21,
3873388,000002A0,false,Rx,0,8,00,6E,14,04,00,FB,FF,21,
3884941,00000312,false,Rx,0,8,00,10,8C,39,00,FF,00,0D,
3885184,00000422,false,Rx,0,8,00,00,00,00,00,00,00,67,
3886097,000003F3,false,Rx,0,8,7C,24,04,0A,FB,FF,04,00,
3886343,00000299,false,Rx,0,8,00,00,00,00,00,00,18,74,
3887933,000002A0,false,Rx,0,8,00,60,06,04,00,FB,FF,21,
3889750,000002A0,false,Rx,0,8,00,61,07,04,00,FB,FF,21,
3891570,000002A0,false,Rx,0,8,00,62,08,04,00,FB,FF,21,
3893388,000002A0,false,Rx,0,8,00,63,09,04,00,FB,FF,21,
3904941,00000312,false,Rx,0,8,00,10,8C,3A,00,FF,00,0E,
3906103,000003F3,false,Rx,0,8,7C,24,05,0B,FB,FF,04,00,
3906349,000002A0,false,Rx,0,8,00,64,0A,04,00,FB,FF,21,
3907928,000002A0,false,Rx,0,8,00,65,0B,04,00,FB,FF,21,
3909756,000002A0,false,Rx,0,8,00,66,0C,04,00,FB,FF,21,
3911575,000002A0,false,Rx,0,8,00,67,0D,04,00,FB,FF,21,
3913393,000002A0,false,Rx,0,8,00,68,0E,04,00,FB,FF,21,
3914973,00000422,false,Rx,0,8,00,00,00,00,00,00,00,67,
3924941,00000312,false,Rx,0,8,00,10,8C,3B,00,FF,00,0F,
3926103,000003F3,false,Rx,0,8,7C,24,06,0C,FB,FF,04,00,
3926349,000002A0,false,Rx,0,8,00,69,0F,04,00,FB,FF,21,
3927928,000002A0,false,Rx,0,8,00,6A,10,04,00,FB,FF,21,
3929746,000002A0,false,Rx,0,8,00,6B,11,04,00,FB,FF,21,
3931575,000002A0,false,Rx,0,8,00,6C,12,04,00,FB,FF,21,
3933393,000002A0,false,Rx,0,8,00,6D,13,04,00,FB,FF,21,
3944986,00000312,false,Rx,0,8,00,10,8C,3C,00,FF,00,10,
3945230,00000422,false,Rx,0,8,00,00,00,00,00,00,00,67,
3946153,000003F3,false,Rx,0,8,7C,24,07,0D,FB,FF,04,00,
3946388,000002A0,false,Rx,0,8,00,6E,14,04,00,FB,FF,21,
3947979,00000299,false,Rx,0,8,00,00,00,00,00,00,18,74,
3949798,000002A0,false,Rx,0,8,00,60,06,04,00,FB,FF,21,
3951616,000002A0,false,Rx,0,8,00,61,07,04,00,FB,FF,21,
3953443,000002A0,false,Rx,0,8,00,62,08,04,00,FB,FF,21,
3964904,00000312,false,Rx,0,8,00,10,8C,3D,00,FF,00,11,
3966066,000003F3,false,Rx,0,8,7C,24,08,0E,FB,FF,04,00,
3966302,000002A0,false,Rx,0,8,00,63,09,04,00,FB,FF,21,
3967890,000002A0,false,Rx,0,8,00,64,0A,04,00,FB,FF,21,
3969708,000002A0,false,Rx,0,8,00,65,0B,04,00,FB,FF,21,
3971526,000002A0,false,Rx,0,8,00,66,0C,04,00,FB,FF,21,
3973355,000002A0,false,Rx,0,8,00,67,0D,04,00,FB,FF,21,
3974915,00000422,false,Rx,0,8,00,00,00,00,00,00,00,67,
3984934,00000312,false,Rx,0,8,00,10,8C,3E,00,FF,00,12,
3986096,000003F3,false,Rx,0,8,7C,24,09,0F,FB,FF,04,00,
3986342,000002A0,false,Rx,0,8,00,68,0E,04,00,FB,FF,21,
3987920,000002A0,false,Rx,0,8,00,69,0F,04,00,FB,FF,21,
3989748,000002A0,false,Rx,0,8,00,6A,10,04,00,FB,FF,21,
3991566,000002A0,false,Rx,0,8,00,6B,11,04,00,FB,FF,21,
3993394,000002A0,false,Rx,0,8,00,6C,12,04,00,FB,FF,21,
4004937,00000312,false,Rx,0,8,00,10,8C,30,00,FF,00,04,
4005190,00000422,false,Rx,0,8,00,00,00,00,00,00,00,67,
4006104,000003F3,false,Rx,0,8,7C,24,0A,10,FB,FF,04,00,
4006350,000002A0,false,Rx,0,8,00,62,08,04,00,FB,FF,21,
4007930,000002A0,false,Rx,0,8,00,63,09,04,00,FB,FF,21,
4009749,000002A0,false,Rx,0,8,00,64,0A,04,00,FB,FF,21,
4011567,000002A0,false,Rx,0,8,00,65,0B,04,00,FB,FF,21,
4013395,000002A0,false,Rx,0,8,00,66,0C,04,00,FB,FF,21,
4024938,00000312,false,Rx,0,8,00,10,8C,31,00,FF,00,05,
4026099,000003F3,false,Rx,0,8,7C,24,0B,11,FB,FF,04,00,
4026345,000002A0,false,Rx,0,8,00,67,0D,04,00,FB,FF,21,
4027933,000002A0,false,Rx,0,8,00,68,0E,04,00,FB,FF,21,
4029751,000002A0,false,Rx,0,8,00,69,0F,04,00,FB,FF,21,
4031570,000002A0,false,Rx,0,8,00,6A,10,04,00,FB,FF,21,
4033389,000002A0,false,Rx,0,8,00,6B,11,04,00,FB,FF,21,
4034949,00000422,false,Rx,0,8,00,00,00,00,00,00,00,67,
4044978,00000312,false,Rx,0,8,00,10,8C,32,00,FF,00,06,
4046149,000003F3,false,Rx,0,8,7C,24,0C,12,FB,FF,04,00,
4046385,000002A0,false,Rx,0,8,00,6C,12,04,00,FB,FF,21,
4047963,000002A0,false,Rx,0,8,00,6D,13,04,00,FB,FF,21,
4049792,000002A0,false,Rx,0,8,00,6E,14,04,00,FB,FF,21,
4051610,00000299,false,Rx,0,8,00,00,00,00,00,00,18,74,
4053440,000002A0,false,Rx,0,8,00,60,06,04,00,FB,FF,21,
4064941,00000312,false,Rx,0,8,00,10,8C,33,00,FF,00,07,
4065183,00000422,false,Rx,0,8,00,00,00,00,00,00,00,67,
4066096,000003F3,false,Rx,0,8,7C,24,0D,13,FB,FF,04,00,
4066342,000002A0,false,Rx,0,8,00,61,07,04,00,FB,FF,21,
4067933,000002A0,false,Rx,0,8,00,62,08,04,00,FB,FF,21,
4069741,000002A0,false,Rx,0,8,00,63,09,04,00,FB,FF,21,
4071571,000002A0,false,Rx,0,8,00,64,0A,04,00,FB,FF,21,
4073391,000002A0,false,Rx,0,8,00,65,0B,04,00,FB,FF,21,
4084942,00000312,false,Rx,0,8,00,10,8C,34,00,FF,00,08,
4086104,000003F3,false,Rx,0,8,7C,24,0E,14,FB,FF,04,00,
4086350,000002A0,false,Rx,0,8,00,66,0C,04,00,FB,FF,21,
4087930,000002A0,false,Rx,0,8,00,67,0D,04,00,FB,FF,21,
4089756,000002A0,false,Rx,0,8,00,68,0E,04,00,FB,FF,21,
4091575,000002A0,false,Rx,0,8,00,69,0F,04,00,FB,FF,21,
4093394,000002A0,false,Rx,0,8,00,6A,10,04,00,FB,FF,21,
4094954,00000422,false,Rx,0,8,00,00,00,00,00,00,00,67,
4104931,00000312,false,Rx,0,8,00,10,8C,35,00,FF,00,09,
4106102,000003F3,false,Rx,0,8,7C,24,00,06,FB,FF,04,00,
4106339,000002A0,false,Rx,0,8,00,6B,11,04,00,FB,FF,21,
4107927,000002A0,false,Rx,0,8,00,6C,12,04,00,FB,FF,21,
4109744,000002A0,false,Rx,0,8,00,6D,13,04,00,FB,FF,21,
4111562,000002A0,false,Rx,0,8,00,6E,14,04,00,FB,FF,21,
4113391,00000299,false,Rx,0,8,00,00,00,00,00,00,18,74,
4124902,00000312,false,Rx,0,8,00,10,8C,36,00,FF,00,0A,
4125144,00000422,false,Rx,0,8,00,00,00,00,00,00,00,67,
4126057,000003F3,false,Rx,0,8,7C,24,01,07,FB,FF,04,00,
4126304,000002A0,false,Rx,0,8,00,60,06,04,00,FB,FF,21,
4127885,000002A0,false,Rx,0,8,00,61,07,04,00,FB,FF,21,
4129712,000002A0,false,Rx,0,8,00,62,08,04,00,FB,FF,21,
4131530,000002A0,false,Rx,0,8,00,63,09,04,00,FB,FF,21,
4133359,000002A0,false,Rx,0,8,00,64,0A,04,00,FB,FF,21,
4144961,00000312,false,Rx,0,8,00,10,8C,37,00,FF,00,0B,
4146122,000003F3,false,Rx,0,8,7C,24,02,08,FB,FF,04,00,
4146369,000002A0,false,Rx,0,8,00,65,0B,04,00,FB,FF,21,
4147948,000002A0,false,Rx,0,8,00,66,0C,04,00,FB,FF,21,
4149775,000002A0,false,Rx,0,8,00,67,0D,04,00,FB,FF,21,
4151593,000002A0,false,Rx,0,8,00,68,0E,04,00,FB,FF,21,
4153412,000002A0,false,Rx,0,8,00,69,0F,04,00,FB,FF,21,
4154943,00000422,false,Rx,0,8,00,00,00,00,00,00,00,67,
4164941,00000312,false,Rx,0,8,00,10,8C,38,00,FF,00,0C,
4166102,000003F3,false,Rx,0,8,7C,24,03,09,FB,FF,04,00,
4166339,000002A0,false,Rx,0,8,00,6A,10,04,00,FB,FF,21,
4167928,000002A0,false,Rx,0,8,00,6B,11,04,00,FB,FF,21,
4169746,000002A0,false,Rx,0,8,00,6C,12,04,00,FB,FF,21,
4171564,000002A0,false,Rx,0,8,00,6D,13,04,00,FB,FF,21,
4173394,000002A0,false,Rx,0,8,00,6E,14,04,00,FB,FF,21,
4184926,00000312,false,Rx,0,8,00,10,8C,39,00,FF,00,0D,
4185178,00000422,false,Rx,0,8,00,00,00,00,00,00,00,67,
4186091,000003F3,false,Rx,0,8,7C,24,04,0A,FB,FF,04,00,
4186338,00000299,false,Rx,0,8,00,00,00,00,00,00,18,74,
4187919,000002A0,false,Rx,0,8,00,60,06,04,00,FB,FF,21,
4189736,000002A0,false,Rx,0,8,00,61,07,04,00,FB,FF,21,
4191564,000002A0,false,Rx,0,8,00,62,08,04,00,FB,FF,21,
4193383,000002A0,false,Rx,0,8,00,63,09,04,00,FB,FF,21,
4204936,00000312,false,Rx,0,8,00,10,8C,3A,00,FF,00,0E,
4206097,000003F3,false,Rx,0,8,7C,24,05,0B,FB,FF,04,00,
4206344,000002A0,false,Rx,0,8,00,64,0A,04,00,FB,FF,21,
4207923,000002A0,false,Rx,0,8,00,65,0B,04,00,FB,FF,21,
4209750,000002A0,false,Rx,0,8,00,66,0C,04,00,FB,FF,21,
4211569,000002A0,false,Rx,0,8,00,67,0D,04,00,FB,FF,21,
4213387,000002A0,false,Rx,0,8,00,68,0E,04,00,FB,FF,21,
4214947,00000422,false,Rx,0,8,00,00,00,00,00,00,00,67,
4224936,00000312,false,Rx,0,8,00,10,8C,3B,00,FF,00,0F,
4226107,000003F3,false,Rx,0,8,7C,24,06,0C,FB,FF,04,00,
4226344,000002A0,false,Rx,0,8,00,69,0F,04,00,FB,FF,21,
4227933,000002A0,false,Rx,0,8,00,6A,10,04,00,FB,FF,21,
4229749,000002A0,false,Rx,0,8,00,6B,11,04,00,FB,FF,21,
4231569,000002A0,false,Rx,0,8,00,6C,12,04,00,FB,FF,21,
4233397,000002A0,false,Rx,0,8,00,6D,13,04,00,FB,FF,21,
4244991,00000312,false,Rx,0,8,00,10,8C,3C,00,FF,00,10,
4245233,00000422,false,Rx,0,8,00,00,00,00,00,00,00,67,
4246148,000003F3,false,Rx,0,8,7C,24,07,0D,FB,FF,04,00,
4246394,000002A0,false,Rx,0,8,00,6E,14,04,00,FB,FF,21,
4247984,00000299,false,Rx,0,8,00,00,00,00,00,00,18,74,
4249801,000002A0,false,Rx,0,8,00,60,06,04,00,FB,FF,21,
4251621,000002A0,false,Rx,0,8,00,61,07,04,00,FB,FF,21,
4253449,000002A0,false,Rx,0,8,00,62,08,04,00,FB,FF,21,
4264931,00000312,false,Rx,0,8,00,10,8C,3D,00,FF,00,11,
4266093,000003F3,false,Rx,0,8,7C,24,08,0E,FB,FF,04,00,
4266339,000002A0,false,Rx,0,8,00,63,09,04,00,FB,FF,21,
4267928,000002A0,false,Rx,0,8,00,64,0A,04,00,FB,FF,21,
4269735,000002A0,false,Rx,0,8,00,65,0B,04,00,FB,FF,21,
4271565,000002A0,false,Rx,0,8,00,66,0C,04,00,FB,FF,21,
4273383,000002A0,false,Rx,0,8,00,67,0D,04,00,FB,FF,21,
4274963,00000422,false,Rx,0,8,00,00,00,00,00,00,00,67,
4284860,00000312,false,Rx,0,8,00,10,8C,3E,00,FF,00,12,
4286021,000003F3,false,Rx,0,8,7C,24,09,0F,FB,FF,04,00,
4286268,000002A0,false,Rx,0,8,00,68,0E,04,00,FB,FF,21,
4287845,000002A0,false,Rx,0,8,00,69,0F,04,00,FB,FF,21,
4289664,000002A0,false,Rx,0,8,00,6A,10,04,00,FB,FF,21,
4291483,000002A0,false,Rx,0,8,00,6B,11,04,00,FB,FF,21,
4293311,000002A0,false,Rx,0,8,00,6C,12,04,00,FB,FF,21,
4304986,00000312,false,Rx,0,8,00,10,8C,30,00,FF,00,04,
4305228,00000422,false,Rx,0,8,00,00,00,00,00,00,00,67,
4306142,000003F3,false,Rx,0,8,7C,24,0A,10,FB,FF,04,00,
4306388,000002A0,false,Rx,0,8,00,62,08,04,00,FB,FF,21,
4307968,000002A0,false,Rx,0,8,00,63,09,04,00,FB,FF,21,
4309795,000002A0,false,Rx,0,8,00,64,0A,04,00,FB,FF,21,
4311615,000002A0,false,Rx,0,8,00,65,0B,04,00,FB,FF,21,
4313434,000002A0,false,Rx,0,8,00,66,0C,04,00,FB,FF,21,
4324936,00000312,false,Rx,0,8,00,10,8C,31,00,FF,00,05,
4326099,000003F3,false,Rx,0,8,7C,24,0B,11,FB,FF,04,00,
4326344,000002A0,false,Rx,0,8,00,67,0D,04,00,FB,FF,21,
4327923,000002A0,false,Rx,0,8,00,68,0E,04,00,FB,FF,21,
4329740,000002A0,false,Rx,0,8,00,69,0F,04,00,FB,FF,21,
4331570,000002A0,false,Rx,0,8,00,6A,10,04,00,FB,FF,21,
4333388,000002A0,false,Rx,0,8,00,6B,11,04,00,FB,FF,21,
4334948,00000422,false,Rx,0,8,00,00,00,00,00,00,00,67,
4344966,00000312,false,Rx,0,8,00,10,8C,32,00,FF,00,06,
4346129,000003F3,false,Rx,0,8,7C,24,0C,12,FB,FF,04,00,
4346375,000002A0,false,Rx,0,8,00,6C,12,04,00,FB,FF,21,
4347953,000002A0,false,Rx,0,8,00,6D,13,04,00,FB,FF,21,
4349780,000002A0,false,Rx,0,8,00,6E,14,04,00,FB,FF,21,
4351600,00000299,false,Rx,0,8,00,00,00,00,00,00,18,74,
4353429,000002A0,false,Rx,0,8,00,60,06,04,00,FB,FF,21,
4364931,00000312,false,Rx,0,8,00,10,8C,33,00,FF,00,07,
4365184,00000422,false,Rx,0,8,00,00,00,00,00,00,00,67,
4366097,000003F3,false,Rx,0,8,7C,24,0D,13,FB,FF,04,00,
4366343,000002A0,false,Rx,0,8,00,61,07,04,00,FB,FF,21,
4367923,000002A0,false,Rx,0,8,00,62,08,04,00,FB,FF,21,
4369740,000002A0,false,Rx,0,8,00,63,09,04,00,FB,FF,21,
4371570,000002A0,false,Rx,0,8,00,64,0A,04,00,FB,FF,21,
4373388,000002A0,false,Rx,0,8,00,65,0B,04,00,FB,FF,21,
4384931,00000312,false,Rx,0,8,00,10,8C,34,00,FF,00,08,
4386093,000003F3,false,Rx,0,8,7C,24,0E,14,FB,FF,04,00,
4386339,000002A0,false,Rx,0,8,00,66,0C,04,00,FB,FF,21,
4387917,000002A0,false,Rx,0,8,00,67,0D,04,00,FB,FF,21,
4389746,000002A0,false,Rx,0,8,00,68,0E,04,00,FB,FF,21,
4391555,000002A0,false,Rx,0,8,00,69,0F,04,00,FB,FF,21,
4393383,000002A0,false,Rx,0,8,00,6A,10,04,00,FB,FF,21,
4394943,00000422,false,Rx,0,8,00,00,00,00,00,00,00,67,
4404931,00000312,false,Rx,0,8,00,10,8C,35,00,FF,00,09,
4406103,000003F3,false,Rx,0,8,7C,24,00,06,FB,FF,04,00,
4406339,000002A0,false,Rx,0,8,00,6B,11,04,00,FB,FF,21,
4407928,000002A0,false,Rx,0,8,00,6C,12,04,00,FB,FF,21,
4409746,000002A0,false,Rx,0,8,00,6D,13,04,00,FB,FF,21,
4411565,000002A0,false,Rx,0,8,00,6E,14,04,00,FB,FF,21,
4413393,00000299,false,Rx,0,8,00,00,00,00,00,00,18,74,
4424934,00000312,false,Rx,0,8,00,10,8C,36,00,FF,00,0A,
4425178,00000422,false,Rx,0,8,00,00,00,00,00,00,00,67,
4426101,000003F3,false,Rx,0,8,7C,24,01,07,FB,FF,04,00,
4426337,000002A0,false,Rx,0,8,00,60,06,04,00,FB,FF,21,
4427918,000002A0,false,Rx,0,8,00,61,07,04,00,FB,FF,21,
4429746,000002A0,false,Rx,0,8,00,62,08,04,00,FB,FF,21,
4431565,000002A0,false,Rx,0,8,00,63,09,04,00,FB,FF,21,
4433393,000002A0,false,Rx,0,8,00,64,0A,04,00,FB,FF,21,
4444853,00000312,false,Rx,0,8,00,10,8C,37,00,FF,00,0B,
4446026,000003F3,false,Rx,0,8,7C,24,02,08,FB,FF,04,00,
4446261,000002A0,false,Rx,0,8,00,65,0B,04,00,FB,FF,21,
4447849,000002A0,false,Rx,0,8,00,66,0C,04,00,FB,FF,21,
4449668,000002A0,false,Rx,0,8,00,67,0D,04,00,FB,FF,21,
4451486,000002A0,false,Rx,0,8,00,68,0E,04,00,FB,FF,21,
4453304,000002A0,false,Rx,0,8,00,69,0F,04,00,FB,FF,21,
4454934,00000422,false,Rx,0,8,00,00,00,00,00,00,00,67,
4464934,00000312,false,Rx,0,8,00,10,8C,38,00,FF,00,0C,
4466096,000003F3,false,Rx,0,8,7C,24,03,09,FB,FF,04,00,
4466342,000002A0,false,Rx,0,8,00,6A,10,04,00,FB,FF,21,
4467921,000002A0,false,Rx,0,8,00,6B,11,04,00,FB,FF,21,
4469749,000002A0,false,Rx,0,8,00,6C,12,04,00,FB,FF,21,
4471567,000002A0,false,Rx,0,8,00,6D,13,04,00,FB,FF,21,
4473385,000002A0,false,Rx,0,8,00,6E,14,04,00,FB,FF,21,
4484936,00000312,false,Rx,0,8,00,10,8C,39,00,FF,00,0D,
4485190,00000422,false,Rx,0,8,00,00,00,00,00,00,00,67,
4486102,000003F3,false,Rx,0,8,7C,24,04,0A,FB,FF,04,00,
4486348,00000299,false,Rx,0,8,00,00,00,00,00,00,18,74,
4487929,000002A0,false,Rx,0,8,00,60,06,04,00,FB,FF,21,
4489746,000002A0,false,Rx,0,8,00,61,07,04,00,FB,FF,21,
4491575,000002A0,false,Rx,0,8,00,62,08,04,00,FB,FF,21,
4493393,000002A0,false,Rx,0,8,00,63,09,04,00,FB,FF,21,
4504976,00000312,false,Rx,0,8,00,10,8C,3A,00,FF,00,0E,
4506147,000003F3,false,Rx,0,8,7C,24,05,0B,FB,FF,04,00,
4506382,000002A0,false,Rx,0,8,00,64,0A,04,00,FB,FF,21,
4507961,000002A0,false,Rx,0,8,00,65,0B,04,00,FB,FF,21,
4509789,000002A0,false,Rx,0,8,00,66,0C,04,00,FB,FF,21,
4511607,000002A0,false,Rx,0,8,00,67,0D,04,00,FB,FF,21,
4513436,000002A0,false,Rx,0,8,00,68,0E,04,00,FB,FF,21,
4514946,00000422,false,Rx,0,8,00,00,00,00,00,00,00,67,
4524945,00000312,false,Rx,0,8,00,10,8C,3B,00,FF,00,0F,
4526106,000003F3,false,Rx,0,8,7C,24,06,0C,FB,FF,04,00,
4526352,000002A0,false,Rx,0,8,00,69,0F,04,00,FB,FF,21,
4527931,000002A0,false,Rx,0,8,00,6A,10,04,00,FB,FF,21,
4529749,000002A0,false,Rx,0,8,00,6B,11,04,00,FB,FF,21,
4531577,000002A0,false,Rx,0,8,00,6C,12,04,00,FB,FF,21,
4533396,000002A0,false,Rx,0,8,00,6D,13,04,00,FB,FF,21,
4544978,00000312,false,Rx,0,8,00,10,8C,3C,00,FF,00,10,
4545220,00000422,false,Rx,0,8,00,00,00,00,00,00,00,67,
4546133,000003F3,false,Rx,0,8,7C,24,07,0D,FB,FF,04,00,
4546379,000002A0,false,Rx,0,8,00,6E,14,04,00,FB,FF,21,
4547971,00000299,false,Rx,0,8,00,00,00,00,00,00,18,74,
4549788,000002A0,false,Rx,0,8,00,60,06,04,00,FB,FF,21,
4551606,000002A0,false,Rx,0,8,00,61,07,04,00,FB,FF,21,
4553435,000002A0,false,Rx,0,8,00,62,08,04,00,FB,FF,21,
4564925,00000312,false,Rx,0,8,00,10,8C,3D,00,FF,00,11,
4566096,000003F3,false,Rx,0,8,7C,24,08,0E,FB,FF,04,00,
4566332,000002A0,false,Rx,0,8,00,63,09,04,00,FB,FF,21,
4567922,000002A0,false,Rx,0,8,00,64,0A,04,00,FB,FF,21,
4569738,000002A0,false,Rx,0,8,00,65,0B,04,00,FB,FF,21,
4571557,000002A0,false,Rx,0,8,00,66,0C,04,00,FB,FF,21,
4573386,000002A0,false,Rx,0,8,00,67,0D,04,00,FB,FF,21,
4574986,00000422,false,Rx,0,8,00,00,00,00,00,00,00,67,
4584966,00000312,false,Rx,0,8,00,10,8C,3E,00,FF,00,12,
4586127,000003F3,false,Rx,0,8,7C,24,09,0F,FB,FF,04,00,
4586364,000002A0,false,Rx,0,8,00,68,0E,04,00,FB,FF,21,
4587953,000002A0,false,Rx,0,8,00,69,0F,04,00,FB,FF,21,
4589779,000002A0,false,Rx,0,8,00,6A,10,04,00,FB,FF,21,
4591598,000002A0,false,Rx,0,8,00,6B,11,04,00,FB,FF,21,
4593417,000002A0,false,Rx,0,8,00,6C,12,04,00,FB,FF,21,
4604910,00000312,false,Rx,0,8,00,10,8C,30,00,FF,00,04,
4605151,00000422,false,Rx,0,8,00,00,00,00,00,00,00,67,
4606064,000003F3,false,Rx,0,8,7C,24,0A,10,FB,FF,04,00,
4606312,000002A0,false,Rx,0,8,00,62,08,04,00,FB,FF,21,
4607892,000002A0,false,Rx,0,8,00,63,09,04,00,FB,FF,21,
4609719,000002A0,false,Rx,0,8,00,64,0A,04,00,FB,FF,21,
4611538,000002A0,false,Rx,0,8,00,65,0B,04,00,FB,FF,21,
4613357,000002A0,false,Rx,0,8,00,66,0C,04,00,FB,FF,21,
4624930,00000312,false,Rx,0,8,00,10,8C,31,00,FF,00,05,
4626091,000003F3,false,Rx,0,8,7C,24,0B,11,FB,FF,04,00,
4626339,000002A0,false,Rx,0,8,00,67,0D,04,00,FB,FF,21,
4627928,000002A0,false,Rx,0,8,00,68,0E,04,00,FB,FF,21,
4629745,000002A0,false,Rx,0,8,00,69,0F,04,00,FB,FF,21,
4631563,000002A0,false,Rx,0,8,00,6A,10,04,00,FB,FF,21,
4633382,000002A0,false,Rx,0,8,00,6B,11,04,00,FB,FF,21,
4634943,00000422,false,Rx,0,8,00,00,00,00,00,00,00,67,
4644930,00000312,false,Rx,0,8,00,10,8C,32,00,FF,00,06,
4646102,000003F3,false,Rx,0,8,7C,24,0C,12,FB,FF,04,00,
4646339,000002A0,false,Rx,0,8,00,6C,12,04,00,FB,FF,21,
4647918,000002A0,false,Rx,0,8,00,6D,13,04,00,FB,FF,21,
4649746,000002A0,false,Rx,0,8,00,6E,14,04,00,FB,FF,21,
4651564,00000299,false,Rx,0,8,00,00,00,00,00,00,18,74,
4653394,000002A0,false,Rx,0,8,00,60,06,04,00,FB,FF,21,
4664936,00000312,false,Rx,0,8,00,10,8C,33,00,FF,00,07,
4665188,00000422,false,Rx,0,8,00,00,00,00,00,00,00,67,
4666101,000003F3,false,Rx,0,8,7C,24,0D,13,FB,FF,04,00,
4666338,000002A0,false,Rx,0,8,00,61,07,04,00,FB,FF,21,
4667929,000002A0,false,Rx,0,8,00,62,08,04,00,FB,FF,21,
4669746,000002A0,false,Rx,0,8,00,63,09,04,00,FB,FF,21,
4671574,000002A0,false,Rx,0,8,00,64,0A,04,00,FB,FF,21,
4673393,000002A0,false,Rx,0,8,00,65,0B,04,00,FB,FF,21,
4684936,00000312,false,Rx,0,8,00,10,8C,34,00,FF,00,08,
4686097,000003F3,false,Rx,0,8,7C,24,0E,14,FB,FF,04,00,
4686344,000002A0,false,Rx,0,8,00,66,0C,04,00,FB,FF,21,
4687922,000002A0,false,Rx,0,8,00,67,0D,04,00,FB,FF,21,
4689749,000002A0,false,Rx,0,8,00,68,0E,04,00,FB,FF,21,
4691569,000002A0,false,Rx,0,8,00,69,0F,04,00,FB,FF,21,
4693386,000002A0,false,Rx,0,8,00,6A,10,04,00,FB,FF,21,
4694947,00000422,false,Rx,0,8,00,00,00,00,00,00,00,67,
4704975,00000312,false,Rx,0,8,00,10,8C,35,00,FF,00,09,
4706147,000003F3,false,Rx,0,8,7C,24,00,06,FB,FF,04,00,
4706383,000002A0,false,Rx,0,8,00,6B,11,04,00,FB,FF,21,
4707962,000002A0,false,Rx,0,8,00,6C,12,04,00,FB,FF,21,
4709789,000002A0,false,Rx,0,8,00,6D,13,04,00,FB,FF,21,
4711608,000002A0,false,Rx,0,8,00,6E,14,04,00,FB,FF,21,
4713426,00000299,false,Rx,0,8,00,00,00,00,00,00,18,74,
4724937,00000312,false,Rx,0,8,00,10,8C,36,00,FF,00,0A,
4725189,00000422,false,Rx,0,8,00,00,00,00,00,00,00,67,
4726102,000003F3,false,Rx,0,8,7C,24,01,07,FB,FF,04,00,
4726349,000002A0,false,Rx,0,8,00,60,06,04,00,FB,FF,21,
4727930,000002A0,false,Rx,0,8,00,61,07,04,00,FB,FF,21,
4729746,000002A0,false,Rx,0,8,00,62,08,04,00,FB,FF,21,
4731566,000002A0,false,Rx,0,8,00,63,09,04,00,FB,FF,21,
4733394,000002A0,false,Rx,0,8,00,64,0A,04,00,FB,FF,21,
4744955,00000312,false,Rx,0,8,00,10,8C,37,00,FF,00,0B,
4746128,000003F3,false,Rx,0,8,7C,24,02,08,FB,FF,04,00,
4746363,000002A0,false,Rx,0,8,00,65,0B,04,00,FB,FF,21,
4747952,000002A0,false,Rx,0,8,00,66,0C,04,00,FB,FF,21,
4749769,000002A0,false,Rx,0,8,00,67,0D,04,00,FB,FF,21,
4751598,000002A0,false,Rx,0,8,00,68,0E,04,00,FB,FF,21,
4753416,000002A0,false,Rx,0,8,00,69,0F,04,00,FB,FF,21,
4754906,00000422,false,Rx,0,8,00,00,00,00,00,00,00,67,
4764903,00000312,false,Rx,0,8,00,10,8C,38,00,FF,00,0C,
4766075,000003F3,false,Rx,0,8,7C,24,03,09,FB,FF,04,00,
4766311,000002A0,false,Rx,0,8,00,6A,10,04,00,FB,FF,21,
4767900,000002A0,false,Rx,0,8,00,6B,11,04,00,FB,FF,21,
4769717,000002A0,false,Rx,0,8,00,6C,12,04,00,FB,FF,21,
4771536,000002A0,false,Rx,0,8,00,6D,13,04,00,FB,FF,21,
4773364,000002A0,false,Rx,0,8,00,6E,14,04,00,FB,FF,21,
4784936,00000312,false,Rx,0,8,00,10,8C,39,00,FF,00,0D,
4785178,00000422,false,Rx,0,8,00,00,00,00,00,00,00,67,
4786103,000003F3,false,Rx,0,8,7C,24,04,0A,FB,FF,04,00,
4786338,00000299,false,Rx,0,8,00,00,00,00,00,00,18,74,
4787929,000002A0,false,Rx,0,8,00,60,06,04,00,FB,FF,21,
4789746,000002A0,false,Rx,0,8,00,61,07,04,00,FB,FF,21,
4791576,000002A0,false,Rx,0,8,00,62,08,04,00,FB,FF,21,
4793393,000002A0,false,Rx,0,8,00,63,09,04,00,FB,FF,21,
4804977,00000312,false,Rx,0,8,00,10,8C,3A,00,FF,00,0E,
4806149,000003F3,false,Rx,0,8,7C,24,05,0B,FB,FF,04,00,
4806385,000002A0,false,Rx,0,8,00,64,0A,04,00,FB,FF,21,
4807974,000002A0,false,Rx,0,8,00,65,0B,04,00,FB,FF,21,
4809791,000002A0,false,Rx,0,8,00,66,0C,04,00,FB,FF,21,
4811620,000002A0,false,Rx,0,8,00,67,0D,04,00,FB,FF,21,
4813439,000002A0,false,Rx,0,8,00,68,0E,04,00,FB,FF,21,
4814949,00000422,false,Rx,0,8,00,00,00,00,00,00,00,67,
4824939,00000312,false,Rx,0,8,00,10,8C,3B,00,FF,00,0F,
4826101,000003F3,false,Rx,0,8,7C,24,06,0C,FB,FF,04,00,
4826347,000002A0,false,Rx,0,8,00,69,0F,04,00,FB,FF,21,
4827926,000002A0,false,Rx,0,8,00,6A,10,04,00,FB,FF,21,
4829743,000002A0,false,Rx,0,8,00,6B,11,04,00,FB,FF,21,
4831572,000002A0,false,Rx,0,8,00,6C,12,04,00,FB,FF,21,
4833390,000002A0,false,Rx,0,8,00,6D,13,04,00,FB,FF,21,
4844941,00000312,false,Rx,0,8,00,10,8C,3C,00,FF,00,10,
4845195,00000422,false,Rx,0,8,00,00,00,00,00,00,00,67,
4846108,000003F3,false,Rx,0,8,7C,24,07,0D,FB,FF,04,00,
4846343,000002A0,false,Rx,0,8,00,6E,14,04,00,FB,FF,21,
4847934,00000299,false,Rx,0,8,00,00,00,00,00,00,18,74,
4849751,000002A0,false,Rx,0,8,00,60,06,04,00,FB,FF,21,
4851580,000002A0,false,Rx,0,8,00,61,07,04,00,FB,FF,21,
4853398,000002A0,false,Rx,0,8,00,62,08,04,00,FB,FF,21,
4864939,00000312,false,Rx,0,8,00,10,8C,3D,00,FF,00,11,
4866101,000003F3,false,Rx,0,8,7C,24,08,0E,FB,FF,04,00,
4866337,000002A0,false,Rx,0,8,00,63,09,04,00,FB,FF,21,
4867926,000002A0,false,Rx,0,8,00,64,0A,04,00,FB,FF,21,
4869744,000002A0,false,Rx,0,8,00,65,0B,04,00,FB,FF,21,
4871562,000002A0,false,Rx,0,8,00,66,0C,04,00,FB,FF,21,
4873390,000002A0,false,Rx,0,8,00,67,0D,04,00,FB,FF,21,
4875000,00000422,false,Rx,0,8,00,00,00,00,00,00,00,67,
4884939,00000312,false,Rx,0,8,00,10,8C,3E,00,FF,00,12,
4886101,000003F3,false,Rx,0,8,7C,24,09,0F,FB,FF,04,00,
4886347,000002A0,false,Rx,0,8,00,68,0E,04,00,FB,FF,21,
4887925,000002A0,false,Rx,0,8,00,69,0F,04,00,FB,FF,21,
4889743,000002A0,false,Rx,0,8,00,6A,10,04,00,FB,FF,21,
4891572,000002A0,false,Rx,0,8,00,6B,11,04,00,FB,FF,21,
4893390,000002A0,false,Rx,0,8,00,6C,12,04,00,FB,FF,21,
4904951,00000312,false,Rx,0,8,00,10,8C,30,00,FF,00,04,
4905205,00000422,false,Rx,0,8,00,00,00,00,00,00,00,67,
4906118,000003F3,false,Rx,0,8,7C,24,0A,10,FB,FF,04,00,
4906364,000002A0,false,Rx,0,8,00,62,08,04,00,FB,FF,21,
4907944,000002A0,false,Rx,0,8,00,63,09,04,00,FB,FF,21,
4909762,000002A0,false,Rx,0,8,00,64,0A,04,00,FB,FF,21,
4911580,000002A0,false,Rx,0,8,00,65,0B,04,00,FB,FF,21,
4913408,000002A0,false,Rx,0,8,00,66,0C,04,00,FB,FF,21,
4924848,00000312,false,Rx,0,8,00,10,8C,31,00,FF,00,05,
4926012,000003F3,false,Rx,0,8,7C,24,0B,11,FB,FF,04,00,
4926248,000002A0,false,Rx,0,8,00,67,0D,04,00,FB,FF,21,
4927835,000002A0,false,Rx,0,8,00,68,0E,04,00,FB,FF,21,
4929654,000002A0,false,Rx,0,8,00,69,0F,04,00,FB,FF,21,
4931472,000002A0,false,Rx,0,8,00,6A,10,04,00,FB,FF,21,
4933300,000002A0,false,Rx,0,8,00,6B,11,04,00,FB,FF,21,
4934819,00000422,false,Rx,0,8,00,00,00,00,00,00,00,67,
4944858,00000312,false,Rx,0,8,00,10,8C,32,00,FF,00,06,
4946020,000003F3,false,Rx,0,8,7C,24,0C,12,FB,FF,04,00,
4946266,000002A0,false,Rx,0,8,00,6C,12,04,00,FB,FF,21,
4947844,000002A0,false,Rx,0,8,00,6D,13,04,00,FB,FF,21,
4949674,000002A0,false,Rx,0,8,00,6E,14,04,00,FB,FF,21,
4951492,00000299,false,Rx,0,8,00,00,00,00,00,00,18,74,
4953320,000002A0,false,Rx,0,8,00,60,06,04,00,FB,FF,21,
4964863,00000312,false,Rx,0,8,00,10,8C,33,00,FF,00,07,
4965116,00000422,false,Rx,0,8,00,00,00,00,00,00,00,67,
4966029,000003F3,false,Rx,0,8,7C,24,0D,13,FB,FF,04,00,
4966265,000002A0,false,Rx,0,8,00,61,07,04,00,FB,FF,21,
4967856,000002A0,false,Rx,0,8,00,62,08,04,00,FB,FF,21,
4969674,000002A0,false,Rx,0,8,00,63,09,04,00,FB,FF,21,
4971502,000002A0,false,Rx,0,8,00,64,0A,04,00,FB,FF,21,
4973320,000002A0,false,Rx,0,8,00,65,0B,04,00,FB,FF,21,
4984871,00000312,false,Rx,0,8,00,10,8C,34,00,FF,00,08,
4986033,000003F3,false,Rx,0,8,7C,24,0E,14,FB,FF,04,00,
4986269,000002A0,false,Rx,0,8,00,66,0C,04,00,FB,FF,21,
4987857,000002A0,false,Rx,0,8,00,67,0D,04,00,FB,FF,21,
4989676,000002A0,false,Rx,0,8,00,68,0E,04,00,FB,FF,21,
4991494,000002A0,false,Rx,0,8,00,69,0F,04,00,FB,FF,21,
4993322,000002A0,false,Rx,0,8,00,6A,10,04,00,FB,FF,21,
4994831,00000422,false,Rx,0,8,00,00,00,00,00,00,00,67,
5004903,00000312,false,Rx,0,8,00,10,8C,35,00,FF,00,09,
5006064,000003F3,false,Rx,0,8,7C,24,00,06,FB,FF,04,00,
5006309,000002A0,false,Rx,0,8,00,6B,11,04,00,FB,FF,21,
5007888,000002A0,false,Rx,0,8,00,6C,12,04,00,FB,FF,21,
5009706,000002A0,false,Rx,0,8,00,6D,13,04,00,FB,FF,21,
5011534,000002A0,false,Rx,0,8,00,6E,14,04,00,FB,FF,21,
5013353,00000299,false,Rx,0,8,00,00,00,00,00,00,18,74,
5024865,00000312,false,Rx,0,8,00,10,8C,36,00,FF,00,0A,
5025107,00000422,false,Rx,0,8,00,00,00,00,00,00,00,67,
5026030,000003F3,false,Rx,0,8,7C,24,01,07,FB,FF,04,00,
5026276,000002A0,false,Rx,0,8,00,60,06,04,00,FB,FF,21,
5027858,000002A0,false,Rx,0,8,00,61,07,04,00,FB,FF,21,
5029676,000002A0,false,Rx,0,8,00,62,08,04,00,FB,FF,21,
5031494,000002A0,false,Rx,0,8,00,63,09,04,00,FB,FF,21,
5033324,000002A0,false,Rx,0,8,00,64,0A,04,00,FB,FF,21,
5044865,00000312,false,Rx,0,8,00,10,8C,37,00,FF,00,0B,
5046026,000003F3,false,Rx,0,8,7C,24,02,08,FB,FF,04,00,
5046272,000002A0,false,Rx,0,8,00,65,0B,04,00,FB,FF,21,
5047861,000002A0,false,Rx,0,8,00,66,0C,04,00,FB,FF,21,
5049679,000002A0,false,Rx,0,8,00,67,0D,04,00,FB,FF,21,
5051497,000002A0,false,Rx,0,8,00,68,0E,04,00,FB,FF,21,
5053316,000002A0,false,Rx,0,8,00,69,0F,04,00,FB,FF,21,
5054813,00000422,false,Rx,0,8,00,00,00,00,00,00,00,67,
5064823,00000312,false,Rx,0,8,00,10,8C,38,00,FF,00,0C,
5065984,000003F3,false,Rx,0,8,7C,24,03,09,FB,FF,04,00,
5066230,000002A0,false,Rx,0,8,00,6A,10,04,00,FB,FF,21,
5067818,000002A0,false,Rx,0,8,00,6B,11,04,00,FB,FF,21,
5069639,000002A0,false,Rx,0,8,00,6C,12,04,00,FB,FF,21,
5071457,000002A0,false,Rx,0,8,00,6D,13,04,00,FB,FF,21,
5073278,000002A0,false,Rx,0,8,00,6E,14,04,00,FB,FF,21,
5084838,00000312,false,Rx,0,8,00,10,8C,39,00,FF,00,0D,
5085091,00000422,false,Rx,0,8,00,00,00,00,00,00,00,67,
5086004,000003F3,false,Rx,0,8,7C,24,04,0A,FB,FF,04,00,
5086250,00000299,false,Rx,0,8,00,00,00,00,00,00,18,74,
5087830,000002A0,false,Rx,0,8,00,60,06,04,00,FB,FF,21,
5089649,000002A0,false,Rx,0,8,00,61,07,04,00,FB,FF,21,
5091477,000002A0,false,Rx,0,8,00,62,08,04,00,FB,FF,21,
