Time Stamp,ID,Extended,Dir,Bus,LEN,D1,D2,D3,D4,D5,D6,D7,D8
39600597,000000E0,false,Rx,0,8,00,00,00,0C,0D,00,00,45,
39605370,0000002C,false,Rx,0,8,1E,00,2F,52,D0,6E,00,80,
39610583,000000E0,false,Rx,0,8,00,00,00,0C,0E,00,00,62,
39615373,0000002C,false,Rx,0,8,1E,00,2F,52,E0,D4,00,80,
39620857,000000E0,false,Rx,0,8,00,00,00,0C,0F,00,00,7F,
39625640,0000002C,false,Rx,0,8,1E,00,2F,52,F0,49,00,80,
39630581,000000E0,false,Rx,0,8,00,00,00,0C,00,00,00,C4,
39635371,0000002C,false,Rx,0,8,1E,00,2F,52,00,21,00,80,
39640575,000000E0,false,Rx,0,8,00,00,00,0C,01,00,00,D9,
39645366,0000002C,false,Rx,0,8,1E,00,2F,52,10,BC,00,80,
39650578,000000E0,false,Rx,0,8,00,00,00,0C,02,00,00,FE,
39655371,0000002C,false,Rx,0,8,1E,00,2F,52,20,06,00,80,
39660572,000000E0,false,Rx,0,8,00,00,00,0C,03,00,00,E3,
39665356,0000002C,false,Rx,0,8,1E,00,2F,52,30,9B,00,80,
39670577,000000E0,false,Rx,0,8,00,00,00,0C,04,00,00,B0,
39675361,0000002C,false,Rx,0,8,1E,00,2F,52,40,6F,00,80,
39680581,000000E0,false,Rx,0,8,00,00,00,0C,05,00,00,AD,
39685362,0000002C,false,Rx,0,8,1E,00,2F,52,50,F2,00,80,
39690573,000000E0,false,Rx,0,8,00,00,00,0C,06,00,00,8A,
39695356,0000002C,false,Rx,0,8,1E,00,2F,52,60,48,00,80,
39700567,000000E0,false,Rx,0,8,00,00,00,0C,07,00,00,97,
39705348,0000002C,false,Rx,0,8,1E,00,2F,52,70,D5,00,80,
39710570,000000E0,false,Rx,0,8,00,00,00,0C,08,00,00,2C,
39715351,0000002C,false,Rx,0,8,1E,00,2F,52,80,BD,00,80,
39720572,000000E0,false,Rx,0,8,00,00,00,0C,09,00,00,31,
39725353,0000002C,false,Rx,0,8,1E,00,2F,52,90,20,00,80,
39730565,000000E0,false,Rx,0,8,00,00,00,0C,0A,00,00,16,
39735356,0000002C,false,Rx,0,8,1E,00,2F,52,A0,9A,00,80,
39740567,000000E0,false,Rx,0,8,00,00,00,0C,0B,00,00,0B,
39745348,0000002C,false,Rx,0,8,1E,00,2F,52,B0,07,00,80,
39750560,000000E0,false,Rx,0,8,00,00,00,0C,0C,00,00,58,
39760563,000000E0,false,Rx,0,8,00,00,00,0C,0D,00,00,45,
39765345,0000002C,false,Rx,0,8,1E,00,2F,52,D0,6E,00,80,
39770557,000000E0,false,Rx,0,8,00,00,00,0C,0E,00,00,62,
39775347,0000002C,false,Rx,0,8,1E,00,2F,52,E0,D4,00,80,
39780559,000000E0,false,Rx,0,8,00,00,00,0C,0F,00,00,7F,
39785340,0000002C,false,Rx,0,8,1E,00,2F,52,F0,49,00,80,
39790562,000000E0,false,Rx,0,8,00,00,00,0C,00,00,00,C4,
39795352,0000002C,false,Rx,0,8,1E,00,2F,52,00,21,00,80,
39800555,000000E0,false,Rx,0,8,00,00,00,0C,01,00,00,D9,
39805335,0000002C,false,Rx,0,8,1E,00,2F,52,10,BC,00,80,
39810557,000000E0,false,Rx,0,8,00,00,00,0C,02,00,00,FE,
39815347,0000002C,false,Rx,0,8,1E,00,2F,52,20,06,00,80,
39820550,000000E0,false,Rx,0,8,00,00,00,0C,03,00,00,E3,
39825340,0000002C,false,Rx,0,8,1E,00,2F,52,30,9B,00,80,
39830552,000000E0,false,Rx,0,8,00,00,00,0C,04,00,00,B0,
39835342,0000002C,false,Rx,0,8,1E,00,2F,52,40,6F,00,80,
39840544,000000E0,false,Rx,0,8,00,00,00,0C,05,00,00,AD,
39845324,0000002C,false,Rx,0,8,1E,00,2F,52,50,F2,00,80,
39850547,000000E0,false,Rx,0,8,00,00,00,0C,06,00,00,8A,
39855337,0000002C,false,Rx,0,8,1E,00,2F,52,60,48,00,80,
39860549,000000E0,false,Rx,0,8,00,00,00,0C,07,00,00,97,
39865330,0000002C,false,Rx,0,8,1E,00,2F,52,70,D5,00,80,
39870543,000000E0,false,Rx,0,8,00,00,00,0C,08,00,00,2C,
39875333,0000002C,false,Rx,0,8,1E,00,2F,52,80,BD,00,80,
39880545,000000E0,false,Rx,0,8,00,00,00,0C,09,00,00,31,
39885326,0000002C,false,Rx,0,8,1E,00,2F,52,90,20,00,80,
39890548,000000E0,false,Rx,0,8,00,00,00,0C,0A,00,00,16,
39895327,0000002C,false,Rx,0,8,1E,00,2F,52,A0,9A,00,80,
39900540,000000E0,false,Rx,0,8,00,00,00,0C,0B,00,00,0B,
39905329,0000002C,false,Rx,0,8,1E,00,2F,52,B0,07,00,80,
39910541,000000E0,false,Rx,0,8,00,00,00,0C,0C,00,00,58,
39915321,0000002C,false,Rx,0,8,1E,00,2F,52,C0,F3,00,80,
39920533,000000E0,false,Rx,0,8,00,00,00,0C,0D,00,00,45,
39925323,0000002C,false,Rx,0,8,1E,00,2F,52,D0,6E,00,80,
39930536,000000E0,false,Rx,0,8,00,00,00,0C,0E,00,00,62,
39935326,0000002C,false,Rx,0,8,1E,00,2F,52,E0,D4,00,80,
39940538,000000E0,false,Rx,0,8,00,00,00,0C,0F,00,00,7F,
42464952,0000002C,false,Rx,0,8,1E,00,2F,52,B0,07,00,80,
42470165,000000E0,false,Rx,0,8,00,00,00,0C,0C,00,00,58,
42474945,0000002C,false,Rx,0,8,1E,00,2F,52,C0,F3,00,80,
42480158,000000E0,false,Rx,0,8,00,00,00,0C,0D,00,00,45,
42484950,0000002C,false,Rx,0,8,1E,00,2F,52,D0,6E,00,80,
42490161,000000E0,false,Rx,0,8,00,00,00,0C,0E,00,00,62,
42494952,0000002C,false,Rx,0,8,1E,00,2F,52,E0,D4,00,80,
42500163,000000E0,false,Rx,0,8,00,00,00,0C,0F,00,00,7F,
42504945,0000002C,false,Rx,0,8,1E,00,2F,52,F0,49,00,80,
42510166,000000E0,false,Rx,0,8,00,00,00,0C,00,00,00,C4,
42514947,0000002C,false,Rx,0,8,1E,00,2F,52,00,21,00,80,
42520158,000000E0,false,Rx,0,8,00,00,00,0C,01,00,00,D9,
42524940,0000002C,false,Rx,0,8,1E,00,2F,52,10,BC,00,80,
42530161,000000E0,false,Rx,0,8,00,00,00,0C,02,00,00,FE,
42534952,0000002C,false,Rx,0,8,1E,00,2F,52,20,06,00,80,
42540163,000000E0,false,Rx,0,8,00,00,00,0C,03,00,00,E3,
42544945,0000002C,false,Rx,0,8,1E,00,2F,52,30,9B,00,80,
42550156,000000E0,false,Rx,0,8,00,00,00,0C,04,00,00,B0,
42554947,0000002C,false,Rx,0,8,1E,00,2F,52,40,6F,00,80,
42560148,000000E0,false,Rx,0,8,00,00,00,0C,05,00,00,AD,
42564930,0000002C,false,Rx,0,8,1E,00,2F,52,50,F2,00,80,
42570151,000000E0,false,Rx,0,8,00,00,00,0C,06,00,00,8A,
42574942,0000002C,false,Rx,0,8,1E,00,2F,52,60,48,00,80,
42580154,000000E0,false,Rx,0,8,00,00,00,0C,07,00,00,97,
42584936,0000002C,false,Rx,0,8,1E,00,2F,52,70,D5,00,80,
42590160,000000E0,false,Rx,0,8,00,00,00,0C,08,00,00,2C,
42594941,0000002C,false,Rx,0,8,1E,00,2F,52,80,BD,00,80,
42600145,000000E0,false,Rx,0,8,00,00,00,0C,09,00,00,31,
42604936,0000002C,false,Rx,0,8,1E,00,2F,52,90,20,00,80,
42610147,000000E0,false,Rx,0,8,00,00,00,0C,0A,00,00,16,
42614928,0000002C,false,Rx,0,8,1E,00,2F,52,A0,9A,00,80,
42620140,000000E0,false,Rx,0,8,00,00,00,0C,0B,00,00,0B,
42624932,0000002C,false,Rx,0,8,1E,00,2F,52,B0,07,00,80,
42630145,000000E0,false,Rx,0,8,00,00,00,0C,0C,00,00,58,
42634926,0000002C,false,Rx,0,8,1E,00,2F,52,C0,F3,00,80,
42640140,000000E0,false,Rx,0,8,00,00,00,0C,0D,00,00,45,
42644921,0000002C,false,Rx,0,8,1E,00,2F,52,D0,6E,00,80,
42650143,000000E0,false,Rx,0,8,00,00,00,0C,0E,00,00,62,
42654924,0000002C,false,Rx,0,8,1E,00,2F,52,E0,D4,00,80,
42660135,000000E0,false,Rx,0,8,00,00,00,0C,0F,00,00,7F,
42664926,0000002C,false,Rx,0,8,1E,00,2F,52,F0,49,00,80,
42670137,000000E0,false,Rx,0,8,00,00,00,0C,00,00,00,C4,
42674928,0000002C,false,Rx,0,8,1E,00,2F,52,00,21,00,80,
42680139,000000E0,false,Rx,0,8,00,00,00,0C,01,00,00,D9,
42684920,0000002C,false,Rx,0,8,1E,00,2F,52,10,BC,00,80,
42690131,000000E0,false,Rx,0,8,00,00,00,0C,02,00,00,FE,
42694922,0000002C,false,Rx,0,8,1E,00,2F,52,20,06,00,80,
42700137,000000E0,false,Rx,0,8,00,00,00,0C,03,00,00,E3,
42704919,0000002C,false,Rx,0,8,1E,00,2F,52,30,9B,00,80,
42710130,000000E0,false,Rx,0,8,00,00,00,0C,04,00,00,B0,
42714922,0000002C,false,Rx,0,8,1E,00,2F,52,40,6F,00,80,
42720125,000000E0,false,Rx,0,8,00,00,00,0C,05,00,00,AD,
42724906,0000002C,false,Rx,0,8,1E,00,2F,52,50,F2,00,80,
42730127,000000E0,false,Rx,0,8,00,00,00,0C,06,00,00,8A,
42734909,0000002C,false,Rx,0,8,1E,00,2F,52,60,48,00,80,
42740119,000000E0,false,Rx,0,8,00,00,00,0C,07,00,00,97,
42744910,0000002C,false,Rx,0,8,1E,00,2F,52,70,D5,00,80,
42750121,000000E0,false,Rx,0,8,00,00,00,0C,08,00,00,2C,
42754912,0000002C,false,Rx,0,8,1E,00,2F,52,80,BD,00,80,
42760125,000000E0,false,Rx,0,8,00,00,00,0C,09,00,00,31,
42764906,0000002C,false,Rx,0,8,1E,00,2F,52,90,20,00,80,
42770118,000000E0,false,Rx,0,8,00,00,00,0C,0A,00,00,16,
42774909,0000002C,false,Rx,0,8,1E,00,2F,52,A0,9A,00,80,
42780120,000000E0,false,Rx,0,8,00,00,00,0C,0B,00,00,0B,
42784901,0000002C,false,Rx,0,8,1E,00,2F,52,B0,07,00,80,
42790113,000000E0,false,Rx,0,8,00,00,00,0C,0C,00,00,58,
42794904,0000002C,false,Rx,0,8,1E,00,2F,52,C0,F3,00,80,
42800115,000000E0,false,Rx,0,8,00,00,00,0C,0D,00,00,45,
42804907,0000002C,false,Rx,0,8,1E,00,2F,52,D0,6E,00,80,
42810118,000000E0,false,Rx,0,8,00,00,00,0C,0E,00,00,62,
42814910,0000002C,false,Rx,0,8,1E,00,2F,52,E0,D4,00,80,
42820120,000000E0,false,Rx,0,8,00,00,00,0C,0F,00,00,7F,
42824902,0000002C,false,Rx,0,8,1E,00,2F,52,F0,49,00,80,
42830113,000000E0,false,Rx,0,8,00,00,00,0C,00,00,00,C4,
42834905,0000002C,false,Rx,0,8,1E,00,2F,52,00,21,00,80,
42840115,000000E0,false,Rx,0,8,00,00,00,0C,01,00,00,D9,
42844898,0000002C,false,Rx,0,8,1E,00,2F,52,10,BC,00,80,
42850118,000000E0,false,Rx,0,8,00,00,00,0C,02,00,00,FE,
42854900,0000002C,false,Rx,0,8,1E,00,2F,52,20,06,00,80,
42860110,000000E0,false,Rx,0,8,00,00,00,0C,03,00,00,E3,
42864893,0000002C,false,Rx,0,8,1E,00,2F,52,30,9B,00,80,
42870103,000000E0,false,Rx,0,8,00,00,00,0C,04,00,00,B0,
44134718,0000002C,false,Rx,0,8,1E,00,2F,52,20,06,00,80,
44149915,000000E0,false,Rx,0,8,00,00,00,0C,04,00,00,B0,
44154706,0000002C,false,Rx,0,8,1E,00,2F,52,40,6F,00,80,
44159917,000000E0,false,Rx,0,8,00,00,00,0C,05,00,00,AD,
44164698,0000002C,false,Rx,0,8,1E,00,2F,52,50,F2,00,80,
44169910,000000E0,false,Rx,0,8,00,00,00,0C,06,00,00,8A,
44174701,0000002C,false,Rx,0,8,1E,00,2F,52,60,48,00,80,
44179913,000000E0,false,Rx,0,8,00,00,00,0C,07,00,00,97,
44184694,0000002C,false,Rx,0,8,1E,00,2F,52,70,D5,00,80,
44189915,000000E0,false,Rx,0,8,00,00,00,0C,08,00,00,2C,
44194699,0000002C,false,Rx,0,8,1E,00,2F,52,80,BD,00,80,
44199910,000000E0,false,Rx,0,8,00,00,00,0C,09,00,00,31,
44204701,0000002C,false,Rx,0,8,1E,00,2F,52,90,20,00,80,
44209912,000000E0,false,Rx,0,8,00,00,00,0C,0A,00,00,16,
44214693,0000002C,false,Rx,0,8,1E,00,2F,52,A0,9A,00,80,
44219905,000000E0,false,Rx,0,8,00,00,00,0C,0B,00,00,0B,
44224686,0000002C,false,Rx,0,8,1E,00,2F,52,B0,07,00,80,
44229907,000000E0,false,Rx,0,8,00,00,00,0C,0C,00,00,58,
44234689,0000002C,false,Rx,0,8,1E,00,2F,52,C0,F3,00,80,
44239900,000000E0,false,Rx,0,8,00,00,00,0C,0D,00,00,45,
44244690,0000002C,false,Rx,0,8,1E,00,2F,52,D0,6E,00,80,
44249901,000000E0,false,Rx,0,8,00,00,00,0C,0E,00,00,62,
44254692,0000002C,false,Rx,0,8,1E,00,2F,52,E0,D4,00,80,
44259904,000000E0,false,Rx,0,8,00,00,00,0C,0F,00,00,7F,
44264695,0000002C,false,Rx,0,8,1E,00,2F,52,F0,49,00,80,
44269906,000000E0,false,Rx,0,8,00,00,00,0C,00,00,00,C4,
44274689,0000002C,false,Rx,0,8,1E,00,2F,52,00,21,00,80,
44279900,000000E0,false,Rx,0,8,00,00,00,0C,01,00,00,D9,
44284681,0000002C,false,Rx,0,8,1E,00,2F,52,10,BC,00,80,
44289902,000000E0,false,Rx,0,8,00,00,00,0C,02,00,00,FE,
44294683,0000002C,false,Rx,0,8,1E,00,2F,52,20,06,00,80,
44299895,000000E0,false,Rx,0,8,00,00,00,0C,03,00,00,E3,
44304676,0000002C,false,Rx,0,8,1E,00,2F,52,30,9B,00,80,
44309897,000000E0,false,Rx,0,8,00,00,00,0C,04,00,00,B0,
44314680,0000002C,false,Rx,0,8,1E,00,2F,52,40,6F,00,80,
44319891,000000E0,false,Rx,0,8,00,00,00,0C,05,00,00,AD,
44324672,0000002C,false,Rx,0,8,1E,00,2F,52,50,F2,00,80,
44329892,000000E0,false,Rx,0,8,00,00,00,0C,06,00,00,8A,
44334675,0000002C,false,Rx,0,8,1E,00,2F,52,60,48,00,80,
44339886,000000E0,false,Rx,0,8,00,00,00,0C,07,00,00,97,
44344669,0000002C,false,Rx,0,8,1E,00,2F,52,70,D5,00,80,
44349891,000000E0,false,Rx,0,8,00,00,00,0C,08,00,00,2C,
44354672,0000002C,false,Rx,0,8,1E,00,2F,52,80,BD,00,80,
44359883,000000E0,false,Rx,0,8,00,00,00,0C,09,00,00,31,
44364674,0000002C,false,Rx,0,8,1E,00,2F,52,90,20,00,80,
44369895,000000E0,false,Rx,0,8,00,00,00,0C,0A,00,00,16,
44374676,0000002C,false,Rx,0,8,1E,00,2F,52,A0,9A,00,80,
44379887,000000E0,false,Rx,0,8,00,00,00,0C,0B,00,00,0B,
44384669,0000002C,false,Rx,0,8,1E,00,2F,52,B0,07,00,80,
44389881,000000E0,false,Rx,0,8,00,00,00,0C,0C,00,00,58,
44394671,0000002C,false,Rx,0,8,1E,00,2F,52,C0,F3,00,80,
44399882,000000E0,false,Rx,0,8,00,00,00,0C,0D,00,00,45,
44404666,0000002C,false,Rx,0,8,1E,00,2F,52,D0,6E,00,80,
44409876,000000E0,false,Rx,0,8,00,00,00,0C,0E,00,00,62,
44414671,0000002C,false,Rx,0,8,1E,00,2F,52,E0,D4,00,80,
44419881,000000E0,false,Rx,0,8,00,00,00,0C,0F,00,00,7F,
44424663,0000002C,false,Rx,0,8,1E,00,2F,52,F0,49,00,80,
44429876,000000E0,false,Rx,0,8,00,00,00,0C,00,00,00,C4,
44434668,0000002C,false,Rx,0,8,1E,00,2F,52,00,21,00,80,
44439871,000000E0,false,Rx,0,8,00,00,00,0C,01,00,00,D9,
44444652,0000002C,false,Rx,0,8,1E,00,2F,52,10,BC,00,80,
44449872,000000E0,false,Rx,0,8,00,00,00,0C,02,00,00,FE,
44454667,0000002C,false,Rx,0,8,1E,00,2F,52,20,06,00,80,
44459877,000000E0,false,Rx,0,8,00,00,00,0C,03,00,00,E3,
44464659,0000002C,false,Rx,0,8,1E,00,2F,52,30,9B,00,80,
44469870,000000E0,false,Rx,0,8,00,00,00,0C,04,00,00,B0,
44474662,0000002C,false,Rx,0,8,1E,00,2F,52,40,6F,00,80,
44479872,000000E0,false,Rx,0,8,00,00,00,0C,05,00,00,AD,
44484654,0000002C,false,Rx,0,8,1E,00,2F,52,50,F2,00,80,
44489864,000000E0,false,Rx,0,8,00,00,00,0C,06,00,00,8A,
50718940,000000E0,false,Rx,0,8,00,00,00,0C,05,00,00,AD,
50723721,0000002C,false,Rx,0,8,1E,00,2F,52,50,F2,00,80,
50728942,000000E0,false,Rx,0,8,00,00,00,0C,06,00,00,8A,
50733723,0000002C,false,Rx,0,8,1E,00,2F,52,60,48,00,80,
50738935,000000E0,false,Rx,0,8,00,00,00,0C,07,00,00,97,
50743716,0000002C,false,Rx,0,8,1E,00,2F,52,70,D5,00,80,
50748936,000000E0,false,Rx,0,8,00,00,00,0C,08,00,00,2C,
50753719,0000002C,false,Rx,0,8,1E,00,2F,52,80,BD,00,80,
50758930,000000E0,false,Rx,0,8,00,00,00,0C,09,00,00,31,
50763722,0000002C,false,Rx,0,8,1E,00,2F,52,90,20,00,80,
50768934,000000E0,false,Rx,0,8,00,00,00,0C,0A,00,00,16,
50773716,0000002C,false,Rx,0,8,1E,00,2F,52,A0,9A,00,80,
50778925,000000E0,false,Rx,0,8,00,00,00,0C,0B,00,00,0B,
50783708,0000002C,false,Rx,0,8,1E,00,2F,52,B0,07,00,80,
50788919,000000E0,false,Rx,0,8,00,00,00,0C,0C,00,00,58,
50793711,0000002C,false,Rx,0,8,1E,00,2F,52,C0,F3,00,80,
50798921,000000E0,false,Rx,0,8,00,00,00,0C,0D,00,00,45,
50803705,0000002C,false,Rx,0,8,1E,00,2F,52,D0,6E,00,80,
50808925,000000E0,false,Rx,0,8,00,00,00,0C,0E,00,00,62,
50813707,0000002C,false,Rx,0,8,1E,00,2F,52,E0,D4,00,80,
50818917,000000E0,false,Rx,0,8,00,00,00,0C,0F,00,00,7F,
50823699,0000002C,false,Rx,0,8,1E,00,2F,52,F0,49,00,80,
50828919,000000E0,false,Rx,0,8,00,00,00,0C,00,00,00,C4,
50833711,0000002C,false,Rx,0,8,1E,00,2F,52,00,21,00,80,
50838921,000000E0,false,Rx,0,8,00,00,00,0C,01,00,00,D9,
50843703,0000002C,false,Rx,0,8,1E,00,2F,52,10,BC,00,80,
50848916,000000E0,false,Rx,0,8,00,00,00,0C,02,00,00,FE,
50853708,0000002C,false,Rx,0,8,1E,00,2F,52,20,06,00,80,
50858919,000000E0,false,Rx,0,8,00,00,00,0C,03,00,00,E3,
50863700,0000002C,false,Rx,0,8,1E,00,2F,52,30,9B,00,80,
50868910,000000E0,false,Rx,0,8,00,00,00,0C,04,00,00,B0,
50873702,0000002C,false,Rx,0,8,1E,00,2F,52,40,6F,00,80,
50878905,000000E0,false,Rx,0,8,00,00,00,0C,05,00,00,AD,
50883686,0000002C,false,Rx,0,8,1E,00,2F,52,50,F2,00,80,
50888907,000000E0,false,Rx,0,8,00,00,00,0C,06,00,00,8A,
50893699,0000002C,false,Rx,0,8,1E,00,2F,52,60,48,00,80,
50898910,000000E0,false,Rx,0,8,00,00,00,0C,07,00,00,97,
50903691,0000002C,false,Rx,0,8,1E,00,2F,52,70,D5,00,80,
50908902,000000E0,false,Rx,0,8,00,00,00,0C,08,00,00,2C,
50913694,0000002C,false,Rx,0,8,1E,00,2F,52,80,BD,00,80,
50918906,000000E0,false,Rx,0,8,00,00,00,0C,09,00,00,31,
50923696,0000002C,false,Rx,0,8,1E,00,2F,52,90,20,00,80,
50928908,000000E0,false,Rx,0,8,00,00,00,0C,0A,00,00,16,
50933689,0000002C,false,Rx,0,8,1E,00,2F,52,A0,9A,00,80,
50938901,000000E0,false,Rx,0,8,00,00,00,0C,0B,00,00,0B,
50943691,0000002C,false,Rx,0,8,1E,00,2F,52,B0,07,00,80,
50948902,000000E0,false,Rx,0,8,00,00,00,0C,0C,00,00,58,
50953684,0000002C,false,Rx,0,8,1E,00,2F,52,C0,F3,00,80,
50958896,000000E0,false,Rx,0,8,00,00,00,0C,0D,00,00,45,
50963677,0000002C,false,Rx,0,8,1E,00,2F,52,D0,6E,00,80,
50968898,000000E0,false,Rx,0,8,00,00,00,0C,0E,00,00,62,
50973691,0000002C,false,Rx,0,8,1E,00,2F,52,E0,D4,00,80,
50978902,000000E0,false,Rx,0,8,00,00,00,0C,0F,00,00,7F,
50983684,0000002C,false,Rx,0,8,1E,00,2F,52,F0,49,00,80,
50988895,000000E0,false,Rx,0,8,00,00,00,0C,00,00,00,C4,
50993686,0000002C,false,Rx,0,8,1E,00,2F,52,00,21,00,80,
50998897,000000E0,false,Rx,0,8,00,00,00,0C,01,00,00,D9,
51003679,0000002C,false,Rx,0,8,1E,00,2F,52,10,BC,00,80,
51008890,000000E0,false,Rx,0,8,00,00,00,0C,02,00,00,FE,
51013681,0000002C,false,Rx,0,8,1E,00,2F,52,20,06,00,80,
51018892,000000E0,false,Rx,0,8,00,00,00,0C,03,00,00,E3,
51023674,0000002C,false,Rx,0,8,1E,00,2F,52,30,9B,00,80,
51028885,000000E0,false,Rx,0,8,00,00,00,0C,04,00,00,B0,
51033676,0000002C,false,Rx,0,8,1E,00,2F,52,40,6F,00,80,
51038887,000000E0,false,Rx,0,8,00,00,00,0C,05,00,00,AD,
51043669,0000002C,false,Rx,0,8,1E,00,2F,52,50,F2,00,80,
51048890,000000E0,false,Rx,0,8,00,00,00,0C,06,00,00,8A,
51108880,000000E0,false,Rx,0,8,00,00,00,0C,0C,00,00,58,
51113661,0000002C,false,Rx,0,8,1E,00,2F,52,C0,F3,00,80,
51118872,000000E0,false,Rx,0,8,00,00,00,0C,0D,00,00,45,
51123654,0000002C,false,Rx,0,8,1E,00,2F,52,D0,6E,00,80,
51128875,000000E0,false,Rx,0,8,00,00,00,0C,0E,00,00,62,
51133656,0000002C,false,Rx,0,8,1E,00,2F,52,E0,D4,00,80,
51138877,000000E0,false,Rx,0,8,00,00,00,0C,0F,00,00,7F,
51143659,0000002C,false,Rx,0,8,1E,00,2F,52,F0,49,00,80,
51148870,000000E0,false,Rx,0,8,00,00,00,0C,00,00,00,C4,
51153661,0000002C,false,Rx,0,8,1E,00,2F,52,00,21,00,80,
51158872,000000E0,false,Rx,0,8,00,00,00,0C,01,00,00,D9,
51163654,0000002C,false,Rx,0,8,1E,00,2F,52,10,BC,00,80,
51168866,000000E0,false,Rx,0,8,00,00,00,0C,02,00,00,FE,
51173656,0000002C,false,Rx,0,8,1E,00,2F,52,20,06,00,80,
51178867,000000E0,false,Rx,0,8,00,00,00,0C,03,00,00,E3,
51183650,0000002C,false,Rx,0,8,1E,00,2F,52,30,9B,00,80,
51188861,000000E0,false,Rx,0,8,00,00,00,0C,04,00,00,B0,
51193652,0000002C,false,Rx,0,8,1E,00,2F,52,40,6F,00,80,
51198864,000000E0,false,Rx,0,8,00,00,00,0C,05,00,00,AD,
51203644,0000002C,false,Rx,0,8,1E,00,2F,52,50,F2,00,80,
51208855,000000E0,false,Rx,0,8,00,00,00,0C,06,00,00,8A,
51213650,0000002C,false,Rx,0,8,1E,00,2F,52,60,48,00,80,
51218860,000000E0,false,Rx,0,8,00,00,00,0C,07,00,00,97,
51223641,0000002C,false,Rx,0,8,1E,00,2F,52,70,D5,00,80,
51228862,000000E0,false,Rx,0,8,00,00,00,0C,08,00,00,2C,
51233645,0000002C,false,Rx,0,8,1E,00,2F,52,80,BD,00,80,
51238856,000000E0,false,Rx,0,8,00,00,00,0C,09,00,00,31,
51243647,0000002C,false,Rx,0,8,1E,00,2F,52,90,20,00,80,
51248860,000000E0,false,Rx,0,8,00,00,00,0C,0A,00,00,16,
51253641,0000002C,false,Rx,0,8,1E,00,2F,52,A0,9A,00,80,
51258852,000000E0,false,Rx,0,8,00,00,00,0C,0B,00,00,0B,
51263642,0000002C,false,Rx,0,8,1E,00,2F,52,B0,07,00,80,
51268854,000000E0,false,Rx,0,8,00,00,00,0C,0C,00,00,58,
51273634,0000002C,false,Rx,0,8,1E,00,2F,52,C0,F3,00,80,
51278846,000000E0,false,Rx,0,8,00,00,00,0C,0D,00,00,45,
51283638,0000002C,false,Rx,0,8,1E,00,2F,52,D0,6E,00,80,
51288848,000000E0,false,Rx,0,8,00,00,00,0C,0E,00,00,62,
51293641,0000002C,false,Rx,0,8,1E,00,2F,52,E0,D4,00,80,
51298851,000000E0,false,Rx,0,8,00,00,00,0C,0F,00,00,7F,
51303633,0000002C,false,Rx,0,8,1E,00,2F,52,F0,49,00,80,
51308844,000000E0,false,Rx,0,8,00,00,00,0C,00,00,00,C4,
51313636,0000002C,false,Rx,0,8,1E,00,2F,52,00,21,00,80,
51318856,000000E0,false,Rx,0,8,00,00,00,0C,01,00,00,D9,
51323638,0000002C,false,Rx,0,8,1E,00,2F,52,10,BC,00,80,
51328849,000000E0,false,Rx,0,8,00,00,00,0C,02,00,00,FE,
51333631,0000002C,false,Rx,0,8,1E,00,2F,52,20,06,00,80,
51338841,000000E0,false,Rx,0,8,00,00,00,0C,03,00,00,E3,
51343623,0000002C,false,Rx,0,8,1E,00,2F,52,30,9B,00,80,
51348842,000000E0,false,Rx,0,8,00,00,00,0C,04,00,00,B0,
51353625,0000002C,false,Rx,0,8,1E,00,2F,52,40,6F,00,80,
51358835,000000E0,false,Rx,0,8,00,00,00,0C,05,00,00,AD,
51363617,0000002C,false,Rx,0,8,1E,00,2F,52,50,F2,00,80,
51368837,000000E0,false,Rx,0,8,00,00,00,0C,06,00,00,8A,
51373620,0000002C,false,Rx,0,8,1E,00,2F,52,60,48,00,80,
51378830,000000E0,false,Rx,0,8,00,00,00,0C,07,00,00,97,
51383622,0000002C,false,Rx,0,8,1E,00,2F,52,70,D5,00,80,
51388832,000000E0,false,Rx,0,8,00,00,00,0C,08,00,00,2C,
51393615,0000002C,false,Rx,0,8,1E,00,2F,52,80,BD,00,80,
51398836,000000E0,false,Rx,0,8,00,00,00,0C,09,00,00,31,
51403618,0000002C,false,Rx,0,8,1E,00,2F,52,90,20,00,80,
51408830,000000E0,false,Rx,0,8,00,00,00,0C,0A,00,00,16,
51413621,0000002C,false,Rx,0,8,1E,00,2F,52,A0,9A,00,80,
51418832,000000E0,false,Rx,0,8,00,00,00,0C,0B,00,00,0B,
51423614,0000002C,false,Rx,0,8,1E,00,2F,52,B0,07,00,80,
51428826,000000E0,false,Rx,0,8,00,00,00,0C,0C,00,00,58,
51433617,0000002C,false,Rx,0,8,1E,00,2F,52,C0,F3,00,80,
51438828,000000E0,false,Rx,0,8,00,00,00,0C,0D,00,00,45,
51443609,0000002C,false,Rx,0,8,1E,00,2F,52,D0,6E,00,80,
51448821,000000E0,false,Rx,0,8,00,00,00,0C,0E,00,00,62,
51453614,0000002C,false,Rx,0,8,1E,00,2F,52,E0,D4,00,80,
51458826,000000E0,false,Rx,0,8,00,00,00,0C,0F,00,00,7F,
51463607,0000002C,false,Rx,0,8,1E,00,2F,52,F0,49,00,80,
51468828,000000E0,false,Rx,0,8,00,00,00,0C,00,00,00,C4,
51473611,0000002C,false,Rx,0,8,1E,00,2F,52,00,21,00,80,
51478822,000000E0,false,Rx,0,8,00,00,00,0C,01,00,00,D9,
51483603,0000002C,false,Rx,0,8,1E,00,2F,52,10,BC,00,80,
51488824,000000E0,false,Rx,0,8,00,00,00,0C,02,00,00,FE,
51493616,0000002C,false,Rx,0,8,1E,00,2F,52,20,06,00,80,
51498817,000000E0,false,Rx,0,8,00,00,00,0C,03,00,00,E3,
51503599,0000002C,false,Rx,0,8,1E,00,2F,52,30,9B,00,80,
51508821,000000E0,false,Rx,0,8,00,00,00,0C,04,00,00,B0,
51513602,0000002C,false,Rx,0,8,1E,00,2F,52,40,6F,00,80,
51518813,000000E0,false,Rx,0,8,00,00,00,0C,05,00,00,AD,
51523594,0000002C,false,Rx,0,8,1E,00,2F,52,50,F2,00,80,
51528816,000000E0,false,Rx,0,8,00,00,00,0C,06,00,00,8A,
51533597,0000002C,false,Rx,0,8,1E,00,2F,52,60,48,00,80,
51538808,000000E0,false,Rx,0,8,00,00,00,0C,07,00,00,97,
51543599,0000002C,false,Rx,0,8,1E,00,2F,52,70,D5,00,80,
51548810,000000E0,false,Rx,0,8,00,00,00,0C,08,00,00,2C,
51553591,0000002C,false,Rx,0,8,1E,00,2F,52,80,BD,00,80,
51558812,000000E0,false,Rx,0,8,00,00,00,0C,09,00,00,31,
51563594,0000002C,false,Rx,0,8,1E,00,2F,52,90,20,00,80,
51568805,000000E0,false,Rx,0,8,00,00,00,0C,0A,00,00,16,
51573596,0000002C,false,Rx,0,8,1E,00,2F,52,A0,9A,00,80,
51578808,000000E0,false,Rx,0,8,00,00,00,0C,0B,00,00,0B,
51583589,0000002C,false,Rx,0,8,1E,00,2F,52,B0,07,00,80,
51588810,000000E0,false,Rx,0,8,00,00,00,0C,0C,00,00,58,
51593591,0000002C,false,Rx,0,8,1E,00,2F,52,C0,F3,00,80,
51598802,000000E0,false,Rx,0,8,00,00,00,0C,0D,00,00,45,
51603583,0000002C,false,Rx,0,8,1E,00,2F,52,D0,6E,00,80,
51608805,000000E0,false,Rx,0,8,00,00,00,0C,0E,00,00,62,
51613586,0000002C,false,Rx,0,8,1E,00,2F,52,E0,D4,00,80,
51618798,000000E0,false,Rx,0,8,00,00,00,0C,0F,00,00,7F,
51623579,0000002C,false,Rx,0,8,1E,00,2F,52,F0,49,00,80,
51628800,000000E0,false,Rx,0,8,00,00,00,0C,00,00,00,C4,
51633591,0000002C,false,Rx,0,8,1E,00,2F,52,00,21,00,80,
51638792,000000E0,false,Rx,0,8,00,00,00,0C,01,00,00,D9,
51643583,0000002C,false,Rx,0,8,1E,00,2F,52,10,BC,00,80,
51648795,000000E0,false,Rx,0,8,00,00,00,0C,02,00,00,FE,
51653586,0000002C,false,Rx,0,8,1E,00,2F,52,20,06,00,80,
51658797,000000E0,false,Rx,0,8,00,00,00,0C,03,00,00,E3,
51663580,0000002C,false,Rx,0,8,1E,00,2F,52,30,9B,00,80,
51668791,000000E0,false,Rx,0,8,00,00,00,0C,04,00,00,B0,
51673582,0000002C,false,Rx,0,8,1E,00,2F,52,40,6F,00,80,
51678793,000000E0,false,Rx,0,8,00,00,00,0C,05,00,00,AD,
51683574,0000002C,false,Rx,0,8,1E,00,2F,52,50,F2,00,80,
51688785,000000E0,false,Rx,0,8,00,00,00,0C,06,00,00,8A,
51693576,0000002C,false,Rx,0,8,1E,00,2F,52,60,48,00,80,
51698787,000000E0,false,Rx,0,8,00,00,00,0C,07,00,00,97,
51703570,0000002C,false,Rx,0,8,1E,00,2F,52,70,D5,00,80,
51708790,000000E0,false,Rx,0,8,00,00,00,0C,08,00,00,2C,
51713571,0000002C,false,Rx,0,8,1E,00,2F,52,80,BD,00,80,
51718782,000000E0,false,Rx,0,8,00,00,00,0C,09,00,00,31,
51723576,0000002C,false,Rx,0,8,1E,00,2F,52,90,20,00,80,
51728787,000000E0,false,Rx,0,8,00,00,00,0C,0A,00,00,16,
51733568,0000002C,false,Rx,0,8,1E,00,2F,52,A0,9A,00,80,
51738789,000000E0,false,Rx,0,8,00,00,00,0C,0B,00,00,0B,
51743570,0000002C,false,Rx,0,8,1E,00,2F,52,B0,07,00,80,
51748781,000000E0,false,Rx,0,8,00,00,00,0C,0C,00,00,58,
51753562,0000002C,false,Rx,0,8,1E,00,2F,52,C0,F3,00,80,
51758774,000000E0,false,Rx,0,8,00,00,00,0C,0D,00,00,45,
51763565,0000002C,false,Rx,0,8,1E,00,2F,52,D0,6E,00,80,
51768776,000000E0,false,Rx,0,8,00,00,00,0C,0E,00,00,62,
51773557,0000002C,false,Rx,0,8,1E,00,2F,52,E0,D4,00,80,
51778778,000000E0,false,Rx,0,8,00,00,00,0C,0F,00,00,7F,
51783559,0000002C,false,Rx,0,8,1E,00,2F,52,F0,49,00,80,
51788780,000000E0,false,Rx,0,8,00,00,00,0C,00,00,00,C4,
51793561,0000002C,false,Rx,0,8,1E,00,2F,52,00,21,00,80,
51798772,000000E0,false,Rx,0,8,00,00,00,0C,01,00,00,D9,
51803554,0000002C,false,Rx,0,8,1E,00,2F,52,10,BC,00,80,
51808776,000000E0,false,Rx,0,8,00,00,00,0C,02,00,00,FE,
51813568,0000002C,false,Rx,0,8,1E,00,2F,52,20,06,00,80,
51818767,000000E0,false,Rx,0,8,00,00,00,0C,03,00,00,E3,
51823551,0000002C,false,Rx,0,8,1E,00,2F,52,30,9B,00,80,
51828771,000000E0,false,Rx,0,8,00,00,00,0C,04,00,00,B0,
51833553,0000002C,false,Rx,0,8,1E,00,2F,52,40,6F,00,80,
51838764,000000E0,false,Rx,0,8,00,00,00,0C,05,00,00,AD,
51843546,0000002C,false,Rx,0,8,1E,00,2F,52,50,F2,00,80,
51848766,000000E0,false,Rx,0,8,00,00,00,0C,06,00,00,8A,
51853548,0000002C,false,Rx,0,8,1E,00,2F,52,60,48,00,80,
51858768,000000E0,false,Rx,0,8,00,00,00,0C,07,00,00,97,
51863551,0000002C,false,Rx,0,8,1E,00,2F,52,70,D5,00,80,
51868761,000000E0,false,Rx,0,8,00,00,00,0C,08,00,00,2C,
51873552,0000002C,false,Rx,0,8,1E,00,2F,52,80,BD,00,80,
51878762,000000E0,false,Rx,0,8,00,00,00,0C,09,00,00,31,
51883544,0000002C,false,Rx,0,8,1E,00,2F,52,90,20,00,80,
51888765,000000E0,false,Rx,0,8,00,00,00,0C,0A,00,00,16,
51893548,0000002C,false,Rx,0,8,1E,00,2F,52,A0,9A,00,80,
