Time Stamp,ID,Extended,Dir,Bus,LEN,D1,D2,D3,D4,D5,D6,D7,D8
647293,000000E0,false,Rx,0,8,00,00,00,0C,0F,00,00,7F,
652073,0000002C,false,Rx,0,8,1E,00,2F,52,F0,49,00,80,
657296,000000E0,false,Rx,0,8,00,00,00,0C,00,00,00,C4,
662087,0000002C,false,Rx,0,8,1E,00,2F,52,00,21,00,80,
667298,000000E0,false,Rx,0,8,00,00,00,0C,01,00,00,D9,
672079,0000002C,false,Rx,0,8,1E,00,2F,52,10,BC,00,80,
677301,000000E0,false,Rx,0,8,00,00,00,0C,02,00,00,FE,
682081,0000002C,false,Rx,0,8,1E,00,2F,52,20,06,00,80,
687292,000000E0,false,Rx,0,8,00,00,00,0C,03,00,00,E3,
692073,0000002C,false,Rx,0,8,1E,00,2F,52,30,9B,00,80,
697284,000000E0,false,Rx,0,8,00,00,00,0C,04,00,00,B0,
702077,0000002C,false,Rx,0,8,1E,00,2F,52,40,6F,00,80,
707278,000000E0,false,Rx,0,8,00,00,00,0C,05,00,00,AD,
712068,0000002C,false,Rx,0,8,1E,00,2F,52,50,F2,00,80,
717279,000000E0,false,Rx,0,8,00,00,00,0C,06,00,00,8A,
722072,0000002C,false,Rx,0,8,1E,00,2F,52,60,48,00,80,
727283,000000E0,false,Rx,0,8,00,00,00,0C,07,00,00,97,
732065,0000002C,false,Rx,0,8,1E,00,2F,52,70,D5,00,80,
737277,000000E0,false,Rx,0,8,00,00,00,0C,08,00,00,2C,
742067,0000002C,false,Rx,0,8,1E,00,2F,52,80,BD,00,80,
747279,000000E0,false,Rx,0,8,00,00,00,0C,09,00,00,31,
752061,0000002C,false,Rx,0,8,1E,00,2F,52,90,20,00,80,
757282,000000E0,false,Rx,0,8,00,00,00,0C,0A,00,00,16,
762064,0000002C,false,Rx,0,8,1E,00,2F,52,A0,9A,00,80,
767275,000000E0,false,Rx,0,8,00,00,00,0C,0B,00,00,0B,
772057,0000002C,false,Rx,0,8,1E,00,2F,52,B0,07,00,80,
777268,000000E0,false,Rx,0,8,00,00,00,0C,0C,00,00,58,
782059,0000002C,false,Rx,0,8,1E,00,2F,52,C0,F3,00,80,
787279,000000E0,false,Rx,0,8,00,00,00,0C,0D,00,00,45,
792062,0000002C,false,Rx,0,8,1E,00,2F,52,D0,6E,00,80,
797273,000000E0,false,Rx,0,8,00,00,00,0C,0E,00,00,62,
802055,0000002C,false,Rx,0,8,1E,00,2F,52,E0,D4,00,80,
807266,000000E0,false,Rx,0,8,00,00,00,0C,0F,00,00,7F,
812057,0000002C,false,Rx,0,8,1E,00,2F,52,F0,49,00,80,
817269,000000E0,false,Rx,0,8,00,00,00,0C,00,00,00,C4,
822061,0000002C,false,Rx,0,8,1E,00,2F,52,00,21,00,80,
827272,000000E0,false,Rx,0,8,00,00,00,0C,01,00,00,D9,
832053,0000002C,false,Rx,0,8,1E,00,2F,52,10,BC,00,80,
837264,000000E0,false,Rx,0,8,00,00,00,0C,02,00,00,FE,
842058,0000002C,false,Rx,0,8,1E,00,2F,52,20,06,00,80,
847259,000000E0,false,Rx,0,8,00,00,00,0C,03,00,00,E3,
852050,0000002C,false,Rx,0,8,1E,00,2F,52,30,9B,00,80,
857261,000000E0,false,Rx,0,8,00,00,00,0C,04,00,00,B0,
862054,0000002C,false,Rx,0,8,1E,00,2F,52,40,6F,00,80,
867256,000000E0,false,Rx,0,8,00,00,00,0C,05,00,00,AD,
872037,0000002C,false,Rx,0,8,1E,00,2F,52,50,F2,00,80,
877258,000000E0,false,Rx,0,8,00,00,00,0C,06,00,00,8A,
882050,0000002C,false,Rx,0,8,1E,00,2F,52,60,48,00,80,
887262,000000E0,false,Rx,0,8,00,00,00,0C,07,00,00,97,
892043,0000002C,false,Rx,0,8,1E,00,2F,52,70,D5,00,80,
897265,000000E0,false,Rx,0,8,00,00,00,0C,08,00,00,2C,
902046,0000002C,false,Rx,0,8,1E,00,2F,52,80,BD,00,80,
907257,000000E0,false,Rx,0,8,00,00,00,0C,09,00,00,31,
912048,0000002C,false,Rx,0,8,1E,00,2F,52,90,20,00,80,
917259,000000E0,false,Rx,0,8,00,00,00,0C,0A,00,00,16,
922042,0000002C,false,Rx,0,8,1E,00,2F,52,A0,9A,00,80,
927253,000000E0,false,Rx,0,8,00,00,00,0C,0B,00,00,0B,
932034,0000002C,false,Rx,0,8,1E,00,2F,52,B0,07,00,80,
937244,000000E0,false,Rx,0,8,00,00,00,0C,0C,00,00,58,
942036,0000002C,false,Rx,0,8,1E,00,2F,52,C0,F3,00,80,
947257,000000E0,false,Rx,0,8,00,00,00,0C,0D,00,00,45,
952038,0000002C,false,Rx,0,8,1E,00,2F,52,D0,6E,00,80,
957250,000000E0,false,Rx,0,8,00,00,00,0C,0E,00,00,62,
962030,0000002C,false,Rx,0,8,1E,00,2F,52,E0,D4,00,80,
967242,000000E0,false,Rx,0,8,00,00,00,0C,0F,00,00,7F,
972032,0000002C,false,Rx,0,8,1E,00,2F,52,F0,49,00,80,
977244,000000E0,false,Rx,0,8,00,00,00,0C,00,00,00,C4,
982035,0000002C,false,Rx,0,8,1E,00,2F,52,00,21,00,80,
987246,000000E0,false,Rx,0,8,00,00,00,0C,01,00,00,D9,
992027,0000002C,false,Rx,0,8,1E,00,2F,52,10,BC,00,80,
997240,000000E0,false,Rx,0,8,00,00,00,0C,02,00,00,FE,
1002030,0000002C,false,Rx,0,8,1E,00,2F,52,20,06,00,80,
1007242,000000E0,false,Rx,0,8,00,00,00,0C,03,00,00,E3,
1012023,0000002C,false,Rx,0,8,1E,00,2F,52,30,9B,00,80,
1017234,000000E0,false,Rx,0,8,00,00,00,0C,04,00,00,B0,
1022025,0000002C,false,Rx,0,8,1E,00,2F,52,40,6F,00,80,
1027237,000000E0,false,Rx,0,8,00,00,00,0C,05,00,00,AD,
1032019,0000002C,false,Rx,0,8,1E,00,2F,52,50,F2,00,80,
1037230,000000E0,false,Rx,0,8,00,00,00,0C,06,00,00,8A,
1042022,0000002C,false,Rx,0,8,1E,00,2F,52,60,48,00,80,
1047232,000000E0,false,Rx,0,8,00,00,00,0C,07,00,00,97,
1052014,0000002C,false,Rx,0,8,1E,00,2F,52,70,D5,00,80,
1057234,000000E0,false,Rx,0,8,00,00,00,0C,08,00,00,2C,
1062017,0000002C,false,Rx,0,8,1E,00,2F,52,80,BD,00,80,
1067226,000000E0,false,Rx,0,8,00,00,00,0C,09,00,00,31,
1072018,0000002C,false,Rx,0,8,1E,00,2F,52,90,20,00,80,
1077229,000000E0,false,Rx,0,8,00,00,00,0C,0A,00,00,16,
1082012,0000002C,false,Rx,0,8,1E,00,2F,52,A0,9A,00,80,
1087232,000000E0,false,Rx,0,8,00,00,00,0C,0B,00,00,0B,
1092016,0000002C,false,Rx,0,8,1E,00,2F,52,B0,07,00,80,
1097226,000000E0,false,Rx,0,8,00,00,00,0C,0C,00,00,58,
1102010,0000002C,false,Rx,0,8,1E,00,2F,52,C0,F3,00,80,
1107229,000000E0,false,Rx,0,8,00,00,00,0C,0D,00,00,45,
1112021,0000002C,false,Rx,0,8,1E,00,2F,52,D0,6E,00,80,
1117222,000000E0,false,Rx,0,8,00,00,00,0C,0E,00,00,62,
1122015,0000002C,false,Rx,0,8,1E,00,2F,52,E0,D4,00,80,
1127225,000000E0,false,Rx,0,8,00,00,00,0C,0F,00,00,7F,
1132007,0000002C,false,Rx,0,8,1E,00,2F,52,F0,49,00,80,
1137227,000000E0,false,Rx,0,8,00,00,00,0C,00,00,00,C4,
1142010,0000002C,false,Rx,0,8,1E,00,2F,52,00,21,00,80,
1147219,000000E0,false,Rx,0,8,00,00,00,0C,01,00,00,D9,
1152002,0000002C,false,Rx,0,8,1E,00,2F,52,10,BC,00,80,
1157223,000000E0,false,Rx,0,8,00,00,00,0C,02,00,00,FE,
1162005,0000002C,false,Rx,0,8,1E,00,2F,52,20,06,00,80,
1167216,000000E0,false,Rx,0,8,00,00,00,0C,03,00,00,E3,
1171997,0000002C,false,Rx,0,8,1E,00,2F,52,30,9B,00,80,
1177219,000000E0,false,Rx,0,8,00,00,00,0C,04,00,00,B0,
1182000,0000002C,false,Rx,0,8,1E,00,2F,52,40,6F,00,80,
1187211,000000E0,false,Rx,0,8,00,00,00,0C,05,00,00,AD,
1191992,0000002C,false,Rx,0,8,1E,00,2F,52,50,F2,00,80,
1197213,000000E0,false,Rx,0,8,00,00,00,0C,06,00,00,8A,
1201995,0000002C,false,Rx,0,8,1E,00,2F,52,60,48,00,80,
1207208,000000E0,false,Rx,0,8,00,00,00,0C,07,00,00,97,
1211990,0000002C,false,Rx,0,8,1E,00,2F,52,70,D5,00,80,
1217211,000000E0,false,Rx,0,8,00,00,00,0C,08,00,00,2C,
1222002,0000002C,false,Rx,0,8,1E,00,2F,52,80,BD,00,80,
1227203,000000E0,false,Rx,0,8,00,00,00,0C,09,00,00,31,
1231995,0000002C,false,Rx,0,8,1E,00,2F,52,90,20,00,80,
1237208,000000E0,false,Rx,0,8,00,00,00,0C,0A,00,00,16,
1241990,0000002C,false,Rx,0,8,1E,00,2F,52,A0,9A,00,80,
1247203,000000E0,false,Rx,0,8,00,00,00,0C,0B,00,00,0B,
1251985,0000002C,false,Rx,0,8,1E,00,2F,52,B0,07,00,80,
1257206,000000E0,false,Rx,0,8,00,00,00,0C,0C,00,00,58,
1261987,0000002C,false,Rx,0,8,1E,00,2F,52,C0,F3,00,80,
1267198,000000E0,false,Rx,0,8,00,00,00,0C,0D,00,00,45,
1271980,0000002C,false,Rx,0,8,1E,00,2F,52,D0,6E,00,80,
1277201,000000E0,false,Rx,0,8,00,00,00,0C,0E,00,00,62,
1281992,0000002C,false,Rx,0,8,1E,00,2F,52,E0,D4,00,80,
1287203,000000E0,false,Rx,0,8,00,00,00,0C,0F,00,00,7F,
1291984,0000002C,false,Rx,0,8,1E,00,2F,52,F0,49,00,80,
1297204,000000E0,false,Rx,0,8,00,00,00,0C,00,00,00,C4,
1301986,0000002C,false,Rx,0,8,1E,00,2F,52,00,21,00,80,
1307198,000000E0,false,Rx,0,8,00,00,00,0C,01,00,00,D9,
1311978,0000002C,false,Rx,0,8,1E,00,2F,52,10,BC,00,80,
1317199,000000E0,false,Rx,0,8,00,00,00,0C,02,00,00,FE,
1321991,0000002C,false,Rx,0,8,1E,00,2F,52,20,06,00,80,
1327203,000000E0,false,Rx,0,8,00,00,00,0C,03,00,00,E3,
1331985,0000002C,false,Rx,0,8,1E,00,2F,52,30,9B,00,80,
1337198,000000E0,false,Rx,0,8,00,00,00,0C,04,00,00,B0,
1341982,0000002C,false,Rx,0,8,1E,00,2F,52,40,6F,00,80,
1347193,000000E0,false,Rx,0,8,00,00,00,0C,05,00,00,AD,
1351975,0000002C,false,Rx,0,8,1E,00,2F,52,50,F2,00,80,
1357186,000000E0,false,Rx,0,8,00,00,00,0C,06,00,00,8A,
1361976,0000002C,false,Rx,0,8,1E,00,2F,52,60,48,00,80,
1367188,000000E0,false,Rx,0,8,00,00,00,0C,07,00,00,97,
1371968,0000002C,false,Rx,0,8,1E,00,2F,52,70,D5,00,80,
1377190,000000E0,false,Rx,0,8,00,00,00,0C,08,00,00,2C,
1381971,0000002C,false,Rx,0,8,1E,00,2F,52,80,BD,00,80,
1387183,000000E0,false,Rx,0,8,00,00,00,0C,09,00,00,31,
1391974,0000002C,false,Rx,0,8,1E,00,2F,52,90,20,00,80,
1397185,000000E0,false,Rx,0,8,00,00,00,0C,0A,00,00,16,
1401966,0000002C,false,Rx,0,8,1E,00,2F,52,A0,9A,00,80,
1407179,000000E0,false,Rx,0,8,00,00,00,0C,0B,00,00,0B,
1411961,0000002C,false,Rx,0,8,1E,00,2F,52,B0,07,00,80,
1417175,000000E0,false,Rx,0,8,00,00,00,0C,0C,00,00,58,
1421966,0000002C,false,Rx,0,8,1E,00,2F,52,C0,F3,00,80,
1427177,000000E0,false,Rx,0,8,00,00,00,0C,0D,00,00,45,
1431958,0000002C,false,Rx,0,8,1E,00,2F,52,D0,6E,00,80,
1437179,000000E0,false,Rx,0,8,00,00,00,0C,0E,00,00,62,
1441960,0000002C,false,Rx,0,8,1E,00,2F,52,E0,D4,00,80,
1447181,000000E0,false,Rx,0,8,00,00,00,0C,0F,00,00,7F,
1451962,0000002C,false,Rx,0,8,1E,00,2F,52,F0,49,00,80,
1457173,000000E0,false,Rx,0,8,00,00,00,0C,00,00,00,C4,
1461964,0000002C,false,Rx,0,8,1E,00,2F,52,00,21,00,80,
1467175,000000E0,false,Rx,0,8,00,00,00,0C,01,00,00,D9,
1471956,0000002C,false,Rx,0,8,1E,00,2F,52,10,BC,00,80,
1477170,000000E0,false,Rx,0,8,00,00,00,0C,02,00,00,FE,
1481961,0000002C,false,Rx,0,8,1E,00,2F,52,20,06,00,80,
1487175,000000E0,false,Rx,0,8,00,00,00,0C,03,00,00,E3,
1491956,0000002C,false,Rx,0,8,1E,00,2F,52,30,9B,00,80,
1497169,000000E0,false,Rx,0,8,00,00,00,0C,04,00,00,B0,
1501960,0000002C,false,Rx,0,8,1E,00,2F,52,40,6F,00,80,
1507162,000000E0,false,Rx,0,8,00,00,00,0C,05,00,00,AD,
1511943,0000002C,false,Rx,0,8,1E,00,2F,52,50,F2,00,80,
1517165,000000E0,false,Rx,0,8,00,00,00,0C,06,00,00,8A,
1521956,0000002C,false,Rx,0,8,1E,00,2F,52,60,48,00,80,
1527167,000000E0,false,Rx,0,8,00,00,00,0C,07,00,00,97,
1531948,0000002C,false,Rx,0,8,1E,00,2F,52,70,D5,00,80,
1537169,000000E0,false,Rx,0,8,00,00,00,0C,08,00,00,2C,
1541950,0000002C,false,Rx,0,8,1E,00,2F,52,80,BD,00,80,
1547162,000000E0,false,Rx,0,8,00,00,00,0C,09,00,00,31,
1551954,0000002C,false,Rx,0,8,1E,00,2F,52,90,20,00,80,
1557165,000000E0,false,Rx,0,8,00,00,00,0C,0A,00,00,16,
1561947,0000002C,false,Rx,0,8,1E,00,2F,52,A0,9A,00,80,
1567157,000000E0,false,Rx,0,8,00,00,00,0C,0B,00,00,0B,
1571950,0000002C,false,Rx,0,8,1E,00,2F,52,B0,07,00,80,
1577160,000000E0,false,Rx,0,8,00,00,00,0C,0C,00,00,58,
1581943,0000002C,false,Rx,0,8,1E,00,2F,52,C0,F3,00,80,
1587153,000000E0,false,Rx,0,8,00,00,00,0C,0D,00,00,45,
1591937,0000002C,false,Rx,0,8,1E,00,2F,52,D0,6E,00,80,
1597158,000000E0,false,Rx,0,8,00,00,00,0C,0E,00,00,62,
1601941,0000002C,false,Rx,0,8,1E,00,2F,52,E0,D4,00,80,
1607152,000000E0,false,Rx,0,8,00,00,00,0C,0F,00,00,7F,
1611935,0000002C,false,Rx,0,8,1E,00,2F,52,F0,49,00,80,
1617155,000000E0,false,Rx,0,8,00,00,00,0C,00,00,00,C4,
1621938,0000002C,false,Rx,0,8,1E,00,2F,52,00,21,00,80,
1627148,000000E0,false,Rx,0,8,00,00,00,0C,01,00,00,D9,
1631930,0000002C,false,Rx,0,8,1E,00,2F,52,10,BC,00,80,
1637150,000000E0,false,Rx,0,8,00,00,00,0C,02,00,00,FE,
1641933,0000002C,false,Rx,0,8,1E,00,2F,52,20,06,00,80,
1647153,000000E0,false,Rx,0,8,00,00,00,0C,03,00,00,E3,
1651935,0000002C,false,Rx,0,8,1E,00,2F,52,30,9B,00,80,
1657145,000000E0,false,Rx,0,8,00,00,00,0C,04,00,00,B0,
1661938,0000002C,false,Rx,0,8,1E,00,2F,52,40,6F,00,80,
1667138,000000E0,false,Rx,0,8,00,00,00,0C,05,00,00,AD,
1671921,0000002C,false,Rx,0,8,1E,00,2F,52,50,F2,00,80,
1677142,000000E0,false,Rx,0,8,00,00,00,0C,06,00,00,8A,
1681932,0000002C,false,Rx,0,8,1E,00,2F,52,60,48,00,80,
1687145,000000E0,false,Rx,0,8,00,00,00,0C,07,00,00,97,
1691925,0000002C,false,Rx,0,8,1E,00,2F,52,70,D5,00,80,
1697137,000000E0,false,Rx,0,8,00,00,00,0C,08,00,00,2C,
1701927,0000002C,false,Rx,0,8,1E,00,2F,52,80,BD,00,80,
1707139,000000E0,false,Rx,0,8,00,00,00,0C,09,00,00,31,
1711920,0000002C,false,Rx,0,8,1E,00,2F,52,90,20,00,80,
1717141,000000E0,false,Rx,0,8,00,00,00,0C,0A,00,00,16,
1721923,0000002C,false,Rx,0,8,1E,00,2F,52,A0,9A,00,80,
1727134,000000E0,false,Rx,0,8,00,00,00,0C,0B,00,00,0B,
1731915,0000002C,false,Rx,0,8,1E,00,2F,52,B0,07,00,80,
1737136,000000E0,false,Rx,0,8,00,00,00,0C,0C,00,00,58,
1741917,0000002C,false,Rx,0,8,1E,00,2F,52,C0,F3,00,80,
1747130,000000E0,false,Rx,0,8,00,00,00,0C,0D,00,00,45,
1751910,0000002C,false,Rx,0,8,1E,00,2F,52,D0,6E,00,80,
1757141,000000E0,false,Rx,0,8,00,00,00,0C,0E,00,00,62,
1761922,0000002C,false,Rx,0,8,1E,00,2F,52,E0,D4,00,80,
1767133,000000E0,false,Rx,0,8,00,00,00,0C,0F,00,00,7F,
1771915,0000002C,false,Rx,0,8,1E,00,2F,52,F0,49,00,80,
1777137,000000E0,false,Rx,0,8,00,00,00,0C,00,00,00,C4,
1781917,0000002C,false,Rx,0,8,1E,00,2F,52,00,21,00,80,
1787129,000000E0,false,Rx,0,8,00,00,00,0C,01,00,00,D9,
1791910,0000002C,false,Rx,0,8,1E,00,2F,52,10,BC,00,80,
1797131,000000E0,false,Rx,0,8,00,00,00,0C,02,00,00,FE,
1801922,0000002C,false,Rx,0,8,1E,00,2F,52,20,06,00,80,
1807125,000000E0,false,Rx,0,8,00,00,00,0C,03,00,00,E3,
1811906,0000002C,false,Rx,0,8,1E,00,2F,52,30,9B,00,80,
1817127,000000E0,false,Rx,0,8,00,00,00,0C,04,00,00,B0,
1821909,0000002C,false,Rx,0,8,1E,00,2F,52,40,6F,00,80,
1827121,000000E0,false,Rx,0,8,00,00,00,0C,05,00,00,AD,
1831902,0000002C,false,Rx,0,8,1E,00,2F,52,50,F2,00,80,
1837114,000000E0,false,Rx,0,8,00,00,00,0C,06,00,00,8A,
1841908,0000002C,false,Rx,0,8,1E,00,2F,52,60,48,00,80,
1847120,000000E0,false,Rx,0,8,00,00,00,0C,07,00,00,97,
1851900,0000002C,false,Rx,0,8,1E,00,2F,52,70,D5,00,80,
1857111,000000E0,false,Rx,0,8,00,00,00,0C,08,00,00,2C,
1861902,0000002C,false,Rx,0,8,1E,00,2F,52,80,BD,00,80,
1867113,000000E0,false,Rx,0,8,00,00,00,0C,09,00,00,31,
1871904,0000002C,false,Rx,0,8,1E,00,2F,52,90,20,00,80,
1877115,000000E0,false,Rx,0,8,00,00,00,0C,0A,00,00,16,
1881897,0000002C,false,Rx,0,8,1E,00,2F,52,A0,9A,00,80,
1887110,000000E0,false,Rx,0,8,00,00,00,0C,0B,00,00,0B,
1891891,0000002C,false,Rx,0,8,1E,00,2F,52,B0,07,00,80,
1897112,000000E0,false,Rx,0,8,00,00,00,0C,0C,00,00,58,
1901893,0000002C,false,Rx,0,8,1E,00,2F,52,C0,F3,00,80,
1907105,000000E0,false,Rx,0,8,00,00,00,0C,0D,00,00,45,
1911886,0000002C,false,Rx,0,8,1E,00,2F,52,D0,6E,00,80,
1917116,000000E0,false,Rx,0,8,00,00,00,0C,0E,00,00,62,
1921897,0000002C,false,Rx,0,8,1E,00,2F,52,E0,D4,00,80,
1927110,000000E0,false,Rx,0,8,00,00,00,0C,0F,00,00,7F,
1931891,0000002C,false,Rx,0,8,1E,00,2F,52,F0,49,00,80,
1937102,000000E0,false,Rx,0,8,00,00,00,0C,00,00,00,C4,
1941894,0000002C,false,Rx,0,8,1E,00,2F,52,00,21,00,80,
1947105,000000E0,false,Rx,0,8,00,00,00,0C,01,00,00,D9,
1951886,0000002C,false,Rx,0,8,1E,00,2F,52,10,BC,00,80,
1957100,000000E0,false,Rx,0,8,00,00,00,0C,02,00,00,FE,
1961891,0000002C,false,Rx,0,8,1E,00,2F,52,20,06,00,80,
1967102,000000E0,false,Rx,0,8,00,00,00,0C,03,00,00,E3,
1971882,0000002C,false,Rx,0,8,1E,00,2F,52,30,9B,00,80,
1977105,000000E0,false,Rx,0,8,00,00,00,0C,04,00,00,B0,
1981887,0000002C,false,Rx,0,8,1E,00,2F,52,40,6F,00,80,
1987100,000000E0,false,Rx,0,8,00,00,00,0C,05,00,00,AD,
1991882,0000002C,false,Rx,0,8,1E,00,2F,52,50,F2,00,80,
1997095,000000E0,false,Rx,0,8,00,00,00,0C,06,00,00,8A,
2001887,0000002C,false,Rx,0,8,1E,00,2F,52,60,48,00,80,
2007098,000000E0,false,Rx,0,8,00,00,00,0C,07,00,00,97,
2011879,0000002C,false,Rx,0,8,1E,00,2F,52,70,D5,00,80,
2017100,000000E0,false,Rx,0,8,00,00,00,0C,08,00,00,2C,
2021882,0000002C,false,Rx,0,8,1E,00,2F,52,80,BD,00,80,
2027093,000000E0,false,Rx,0,8,00,00,00,0C,09,00,00,31,
2031884,0000002C,false,Rx,0,8,1E,00,2F,52,90,20,00,80,
2037095,000000E0,false,Rx,0,8,00,00,00,0C,0A,00,00,16,
2041876,0000002C,false,Rx,0,8,1E,00,2F,52,A0,9A,00,80,
2047088,000000E0,false,Rx,0,8,00,00,00,0C,0B,00,00,0B,
2051868,0000002C,false,Rx,0,8,1E,00,2F,52,B0,07,00,80,
2057089,000000E0,false,Rx,0,8,00,00,00,0C,0C,00,00,58,
2061871,0000002C,false,Rx,0,8,1E,00,2F,52,C0,F3,00,80,
2067083,000000E0,false,Rx,0,8,00,00,00,0C,0D,00,00,45,
2071864,0000002C,false,Rx,0,8,1E,00,2F,52,D0,6E,00,80,
2077086,000000E0,false,Rx,0,8,00,00,00,0C,0E,00,00,62,
2081878,0000002C,false,Rx,0,8,1E,00,2F,52,E0,D4,00,80,
2087080,000000E0,false,Rx,0,8,00,00,00,0C,0F,00,00,7F,
2091864,0000002C,false,Rx,0,8,1E,00,2F,52,F0,49,00,80,
2097083,000000E0,false,Rx,0,8,00,00,00,0C,00,00,00,C4,
2101866,0000002C,false,Rx,0,8,1E,00,2F,52,00,21,00,80,
2107075,000000E0,false,Rx,0,8,00,00,00,0C,01,00,00,D9,
2111868,0000002C,false,Rx,0,8,1E,00,2F,52,10,BC,00,80,
2117078,000000E0,false,Rx,0,8,00,00,00,0C,02,00,00,FE,
2121870,0000002C,false,Rx,0,8,1E,00,2F,52,20,06,00,80,
2127080,000000E0,false,Rx,0,8,00,00,00,0C,03,00,00,E3,
2131862,0000002C,false,Rx,0,8,1E,00,2F,52,30,9B,00,80,
2137074,000000E0,false,Rx,0,8,00,00,00,0C,04,00,00,B0,
2141865,0000002C,false,Rx,0,8,1E,00,2F,52,40,6F,00,80,
2147076,000000E0,false,Rx,0,8,00,00,00,0C,05,00,00,AD,
2151858,0000002C,false,Rx,0,8,1E,00,2F,52,50,F2,00,80,
2157068,000000E0,false,Rx,0,8,00,00,00,0C,06,00,00,8A,
2161860,0000002C,false,Rx,0,8,1E,00,2F,52,60,48,00,80,
2167070,000000E0,false,Rx,0,8,00,00,00,0C,07,00,00,97,
2171852,0000002C,false,Rx,0,8,1E,00,2F,52,70,D5,00,80,
2177073,000000E0,false,Rx,0,8,00,00,00,0C,08,00,00,2C,
2181855,0000002C,false,Rx,0,8,1E,00,2F,52,80,BD,00,80,
2187065,000000E0,false,Rx,0,8,00,00,00,0C,09,00,00,31,
2191857,0000002C,false,Rx,0,8,1E,00,2F,52,90,20,00,80,
2197068,000000E0,false,Rx,0,8,00,00,00,0C,0A,00,00,16,
2201850,0000002C,false,Rx,0,8,1E,00,2F,52,A0,9A,00,80,
2207071,000000E0,false,Rx,0,8,00,00,00,0C,0B,00,00,0B,
2211852,0000002C,false,Rx,0,8,1E,00,2F,52,B0,07,00,80,
2217063,000000E0,false,Rx,0,8,00,00,00,0C,0C,00,00,58,
2221845,0000002C,false,Rx,0,8,1E,00,2F,52,C0,F3,00,80,
2227067,000000E0,false,Rx,0,8,00,00,00,0C,0D,00,00,45,
2231848,0000002C,false,Rx,0,8,1E,00,2F,52,D0,6E,00,80,
2237059,000000E0,false,Rx,0,8,00,00,00,0C,0E,00,00,62,
2241850,0000002C,false,Rx,0,8,1E,00,2F,52,E0,D4,00,80,
2247061,000000E0,false,Rx,0,8,00,00,00,0C,0F,00,00,7F,
2251842,0000002C,false,Rx,0,8,1E,00,2F,52,F0,49,00,80,
2257054,000000E0,false,Rx,0,8,00,00,00,0C,00,00,00,C4,
2261845,0000002C,false,Rx,0,8,1E,00,2F,52,00,21,00,80,
2267056,000000E0,false,Rx,0,8,00,00,00,0C,01,00,00,D9,
2271837,0000002C,false,Rx,0,8,1E,00,2F,52,10,BC,00,80,
2277060,000000E0,false,Rx,0,8,00,00,00,0C,02,00,00,FE,
2281840,0000002C,false,Rx,0,8,1E,00,2F,52,20,06,00,80,
2287051,000000E0,false,Rx,0,8,00,00,00,0C,03,00,00,E3,
2291832,0000002C,false,Rx,0,8,1E,00,2F,52,30,9B,00,80,
2297055,000000E0,false,Rx,0,8,00,00,00,0C,04,00,00,B0,
2301845,0000002C,false,Rx,0,8,1E,00,2F,52,40,6F,00,80,
2307047,000000E0,false,Rx,0,8,00,00,00,0C,05,00,00,AD,
2311827,0000002C,false,Rx,0,8,1E,00,2F,52,50,F2,00,80,
2317050,000000E0,false,Rx,0,8,00,00,00,0C,06,00,00,8A,
2321830,0000002C,false,Rx,0,8,1E,00,2F,52,60,48,00,80,
2327042,000000E0,false,Rx,0,8,00,00,00,0C,07,00,00,97,
2331832,0000002C,false,Rx,0,8,1E,00,2F,52,70,D5,00,80,
2337046,000000E0,false,Rx,0,8,00,00,00,0C,08,00,00,2C,
2341829,0000002C,false,Rx,0,8,1E,00,2F,52,80,BD,00,80,
2347050,000000E0,false,Rx,0,8,00,00,00,0C,09,00,00,31,
2351840,0000002C,false,Rx,0,8,1E,00,2F,52,90,20,00,80,
2357042,000000E0,false,Rx,0,8,00,00,00,0C,0A,00,00,16,
2361832,0000002C,false,Rx,0,8,1E,00,2F,52,A0,9A,00,80,
2367045,000000E0,false,Rx,0,8,00,00,00,0C,0B,00,00,0B,
2371825,0000002C,false,Rx,0,8,1E,00,2F,52,B0,07,00,80,
2377037,000000E0,false,Rx,0,8,00,00,00,0C,0C,00,00,58,
2381828,0000002C,false,Rx,0,8,1E,00,2F,52,C0,F3,00,80,
2387040,000000E0,false,Rx,0,8,00,00,00,0C,0D,00,00,45,
2391821,0000002C,false,Rx,0,8,1E,00,2F,52,D0,6E,00,80,
2397032,000000E0,false,Rx,0,8,00,00,00,0C,0E,00,00,62,
2401824,0000002C,false,Rx,0,8,1E,00,2F,52,E0,D4,00,80,
2407035,000000E0,false,Rx,0,8,00,00,00,0C,0F,00,00,7F,
2411816,0000002C,false,Rx,0,8,1E,00,2F,52,F0,49,00,80,
2417037,000000E0,false,Rx,0,8,00,00,00,0C,00,00,00,C4,
2421829,0000002C,false,Rx,0,8,1E,00,2F,52,00,21,00,80,
2427030,000000E0,false,Rx,0,8,00,00,00,0C,01,00,00,D9,
2431823,0000002C,false,Rx,0,8,1E,00,2F,52,10,BC,00,80,
2437035,000000E0,false,Rx,0,8,00,00,00,0C,02,00,00,FE,
2441827,0000002C,false,Rx,0,8,1E,00,2F,52,20,06,00,80,
2447030,000000E0,false,Rx,0,8,00,00,00,0C,03,00,00,E3,
2451812,0000002C,false,Rx,0,8,1E,00,2F,52,30,9B,00,80,
2457035,000000E0,false,Rx,0,8,00,00,00,0C,04,00,00,B0,
2461825,0000002C,false,Rx,0,8,1E,00,2F,52,40,6F,00,80,
2467026,000000E0,false,Rx,0,8,00,00,00,0C,05,00,00,AD,
2471807,0000002C,false,Rx,0,8,1E,00,2F,52,50,F2,00,80,
2477020,000000E0,false,Rx,0,8,00,00,00,0C,06,00,00,8A,
2481810,0000002C,false,Rx,0,8,1E,00,2F,52,60,48,00,80,
2487021,000000E0,false,Rx,0,8,00,00,00,0C,07,00,00,97,
2491802,0000002C,false,Rx,0,8,1E,00,2F,52,70,D5,00,80,
2497025,000000E0,false,Rx,0,8,00,00,00,0C,08,00,00,2C,
2501808,0000002C,false,Rx,0,8,1E,00,2F,52,80,BD,00,80,
2507020,000000E0,false,Rx,0,8,00,00,00,0C,09,00,00,31,
2511803,0000002C,false,Rx,0,8,1E,00,2F,52,90,20,00,80,
2517025,000000E0,false,Rx,0,8,00,00,00,0C,0A,00,00,16,
2521808,0000002C,false,Rx,0,8,1E,00,2F,52,A0,9A,00,80,
2527020,000000E0,false,Rx,0,8,00,00,00,0C,0B,00,00,0B,
2531803,0000002C,false,Rx,0,8,1E,00,2F,52,B0,07,00,80,
2537013,000000E0,false,Rx,0,8,00,00,00,0C,0C,00,00,58,
2541804,0000002C,false,Rx,0,8,1E,00,2F,52,C0,F3,00,80,
2547015,000000E0,false,Rx,0,8,00,00,00,0C,0D,00,00,45,
2551796,0000002C,false,Rx,0,8,1E,00,2F,52,D0,6E,00,80,
2557017,000000E0,false,Rx,0,8,00,00,00,0C,0E,00,00,62,
2561799,0000002C,false,Rx,0,8,1E,00,2F,52,E0,D4,00,80,
2567010,000000E0,false,Rx,0,8,00,00,00,0C,0F,00,00,7F,
2571803,0000002C,false,Rx,0,8,1E,00,2F,52,F0,49,00,80,
2577014,000000E0,false,Rx,0,8,00,00,00,0C,00,00,00,C4,
2581805,0000002C,false,Rx,0,8,1E,00,2F,52,00,21,00,80,
2587010,000000E0,false,Rx,0,8,00,00,00,0C,01,00,00,D9,
2591793,0000002C,false,Rx,0,8,1E,00,2F,52,10,BC,00,80,
2597015,000000E0,false,Rx,0,8,00,00,00,0C,02,00,00,FE,
2601795,0000002C,false,Rx,0,8,1E,00,2F,52,20,06,00,80,
2607006,000000E0,false,Rx,0,8,00,00,00,0C,03,00,00,E3,
2611787,0000002C,false,Rx,0,8,1E,00,2F,52,30,9B,00,80,
2617009,000000E0,false,Rx,0,8,00,00,00,0C,04,00,00,B0,
2621801,0000002C,false,Rx,0,8,1E,00,2F,52,40,6F,00,80,
2627001,000000E0,false,Rx,0,8,00,00,00,0C,05,00,00,AD,
2631783,0000002C,false,Rx,0,8,1E,00,2F,52,50,F2,00,80,
2637005,000000E0,false,Rx,0,8,00,00,00,0C,06,00,00,8A,
2641788,0000002C,false,Rx,0,8,1E,00,2F,52,60,48,00,80,
2646998,000000E0,false,Rx,0,8,00,00,00,0C,07,00,00,97,
2651780,0000002C,false,Rx,0,8,1E,00,2F,52,70,D5,00,80,
2657000,000000E0,false,Rx,0,8,00,00,00,0C,08,00,00,2C,
2661784,0000002C,false,Rx,0,8,1E,00,2F,52,80,BD,00,80,
2667004,000000E0,false,Rx,0,8,00,00,00,0C,09,00,00,31,
2671786,0000002C,false,Rx,0,8,1E,00,2F,52,90,20,00,80,
2676996,000000E0,false,Rx,0,8,00,00,00,0C,0A,00,00,16,
2681779,0000002C,false,Rx,0,8,1E,00,2F,52,A0,9A,00,80,
2686999,000000E0,false,Rx,0,8,00,00,00,0C,0B,00,00,0B,
2691781,0000002C,false,Rx,0,8,1E,00,2F,52,B0,07,00,80,
2696991,000000E0,false,Rx,0,8,00,00,00,0C,0C,00,00,58,
2701773,0000002C,false,Rx,0,8,1E,00,2F,52,C0,F3,00,80,
2706994,000000E0,false,Rx,0,8,00,00,00,0C,0D,00,00,45,
2711775,0000002C,false,Rx,0,8,1E,00,2F,52,D0,6E,00,80,
2716995,000000E0,false,Rx,0,8,00,00,00,0C,0E,00,00,62,
2721780,0000002C,false,Rx,0,8,1E,00,2F,52,E0,D4,00,80,
2726990,000000E0,false,Rx,0,8,00,00,00,0C,0F,00,00,7F,
2731774,0000002C,false,Rx,0,8,1E,00,2F,52,F0,49,00,80,
2736995,000000E0,false,Rx,0,8,00,00,00,0C,00,00,00,C4,
2741776,0000002C,false,Rx,0,8,1E,00,2F,52,00,21,00,80,
2746987,000000E0,false,Rx,0,8,00,00,00,0C,01,00,00,D9,
2751768,0000002C,false,Rx,0,8,1E,00,2F,52,10,BC,00,80,
2756990,000000E0,false,Rx,0,8,00,00,00,0C,02,00,00,FE,
2761771,0000002C,false,Rx,0,8,1E,00,2F,52,20,06,00,80,
2766981,000000E0,false,Rx,0,8,00,00,00,0C,03,00,00,E3,
2771763,0000002C,false,Rx,0,8,1E,00,2F,52,30,9B,00,80,
2776985,000000E0,false,Rx,0,8,00,00,00,0C,04,00,00,B0,
2781766,0000002C,false,Rx,0,8,1E,00,2F,52,40,6F,00,80,
2786977,000000E0,false,Rx,0,8,00,00,00,0C,05,00,00,AD,
2791758,0000002C,false,Rx,0,8,1E,00,2F,52,50,F2,00,80,
2796979,000000E0,false,Rx,0,8,00,00,00,0C,06,00,00,8A,
2801760,0000002C,false,Rx,0,8,1E,00,2F,52,60,48,00,80,
2806972,000000E0,false,Rx,0,8,00,00,00,0C,07,00,00,97,
2811754,0000002C,false,Rx,0,8,1E,00,2F,52,70,D5,00,80,
2816975,000000E0,false,Rx,0,8,00,00,00,0C,08,00,00,2C,
2821756,0000002C,false,Rx,0,8,1E,00,2F,52,80,BD,00,80,
2826977,000000E0,false,Rx,0,8,00,00,00,0C,09,00,00,31,
2831759,0000002C,false,Rx,0,8,1E,00,2F,52,90,20,00,80,
2836972,000000E0,false,Rx,0,8,00,00,00,0C,0A,00,00,16,
2841763,0000002C,false,Rx,0,8,1E,00,2F,52,A0,9A,00,80,
2846975,000000E0,false,Rx,0,8,00,00,00,0C,0B,00,00,0B,
2851756,0000002C,false,Rx,0,8,1E,00,2F,52,B0,07,00,80,
2856967,000000E0,false,Rx,0,8,00,00,00,0C,0C,00,00,58,
2861759,0000002C,false,Rx,0,8,1E,00,2F,52,C0,F3,00,80,
2866970,000000E0,false,Rx,0,8,00,00,00,0C,0D,00,00,45,
2871751,0000002C,false,Rx,0,8,1E,00,2F,52,D0,6E,00,80,
2876972,000000E0,false,Rx,0,8,00,00,00,0C,0E,00,00,62,
2881754,0000002C,false,Rx,0,8,1E,00,2F,52,E0,D4,00,80,
2886975,000000E0,false,Rx,0,8,00,00,00,0C,0F,00,00,7F,
2891756,0000002C,false,Rx,0,8,1E,00,2F,52,F0,49,00,80,
2896967,000000E0,false,Rx,0,8,00,00,00,0C,00,00,00,C4,
2901759,0000002C,false,Rx,0,8,1E,00,2F,52,00,21,00,80,
2906960,000000E0,false,Rx,0,8,00,00,00,0C,11,00,00,14,
2911751,0000002C,false,Rx,0,8,1E,00,2F,40,10,FA,01,00,
2916962,000000E0,false,Rx,0,8,00,00,00,0C,12,00,00,33,
2921743,0000002C,false,Rx,0,8,1E,00,2F,40,20,40,01,00,
2926965,000000E0,false,Rx,0,8,00,00,00,0C,13,00,00,2E,
2931746,0000002C,false,Rx,0,8,1E,00,2F,40,30,DD,01,00,
2936957,000000E0,false,Rx,0,8,00,00,00,0C,14,00,00,7D,
2941748,0000002C,false,Rx,0,8,1E,00,2F,40,40,29,01,00,
2946959,000000E0,false,Rx,0,8,00,00,00,0C,15,00,00,60,
2951741,0000002C,false,Rx,0,8,1E,00,2F,40,50,B4,01,00,
2956962,000000E0,false,Rx,0,8,00,00,00,0C,16,00,00,47,
2961743,0000002C,false,Rx,0,8,1E,00,2F,40,60,0E,01,00,
2966955,000000E0,false,Rx,0,8,00,00,00,0C,17,00,00,5A,
2971736,0000002C,false,Rx,0,8,1E,00,2F,40,70,93,01,00,
2976947,000000E0,false,Rx,0,8,00,00,00,0C,18,00,00,E1,
2981738,0000002C,false,Rx,0,8,1E,00,2F,40,80,FB,01,00,
2986950,000000E0,false,Rx,0,8,00,00,00,0C,19,00,00,FC,
2991741,0000002C,false,Rx,0,8,1E,00,2F,40,90,66,01,00,
2996952,000000E0,false,Rx,0,8,00,00,00,0C,1A,00,00,DB,
3001734,0000002C,false,Rx,0,8,1E,00,2F,40,A0,DC,01,00,
3006945,000000E0,false,Rx,0,8,00,00,00,0C,1B,00,00,C6,
3011736,0000002C,false,Rx,0,8,1E,00,2F,40,B0,41,01,00,
3016947,000000E0,false,Rx,0,8,00,00,00,0C,1C,00,00,95,
3021729,0000002C,false,Rx,0,8,1E,00,2F,40,C0,B5,01,00,
3026940,000000E0,false,Rx,0,8,00,00,00,0C,1D,00,00,88,
3031741,0000002C,false,Rx,0,8,1E,00,2F,40,D0,28,01,00,
3036942,000000E0,false,Rx,0,8,00,00,00,0C,1E,00,00,AF,
3041733,0000002C,false,Rx,0,8,1E,00,2F,40,E0,92,01,00,
3046955,000000E0,false,Rx,0,8,00,00,00,0C,1F,00,00,B2,
3051736,0000002C,false,Rx,0,8,1E,00,2F,40,F0,0F,01,00,
3056947,000000E0,false,Rx,0,8,00,00,00,0C,10,00,00,09,
3061728,0000002C,false,Rx,0,8,1E,00,2F,40,00,67,01,00,
3066940,000000E0,false,Rx,0,8,00,00,00,0C,11,00,00,14,
3071731,0000002C,false,Rx,0,8,1E,00,2F,40,10,FA,01,00,
3076942,000000E0,false,Rx,0,8,00,00,00,0C,12,00,00,33,
3081723,0000002C,false,Rx,0,8,1E,00,2F,40,20,40,01,00,
3086937,000000E0,false,Rx,0,8,00,00,00,0C,13,00,00,2E,
3091720,0000002C,false,Rx,0,8,1E,00,2F,40,30,DD,01,00,
3096940,000000E0,false,Rx,0,8,00,00,00,0C,14,00,00,7D,
3101724,0000002C,false,Rx,0,8,1E,00,2F,40,40,29,01,00,
3106935,000000E0,false,Rx,0,8,00,00,00,0C,15,00,00,60,
3111725,0000002C,false,Rx,0,8,1E,00,2F,40,50,B4,01,00,
3116936,000000E0,false,Rx,0,8,00,00,00,0C,16,00,00,47,
3121718,0000002C,false,Rx,0,8,1E,00,2F,40,60,0E,01,00,
3126930,000000E0,false,Rx,0,8,00,00,00,0C,17,00,00,5A,
3131711,0000002C,false,Rx,0,8,1E,00,2F,40,70,93,01,00,
3136932,000000E0,false,Rx,0,8,00,00,00,0C,18,00,00,E1,
3141714,0000002C,false,Rx,0,8,1E,00,2F,40,80,FB,01,00,
3146925,000000E0,false,Rx,0,8,00,00,00,0C,19,00,00,FC,
3151717,0000002C,false,Rx,0,8,1E,00,2F,40,90,66,01,00,
3156930,000000E0,false,Rx,0,8,00,00,00,0C,1A,00,00,DB,
3161713,0000002C,false,Rx,0,8,1E,00,2F,40,A0,DC,01,00,
3166925,000000E0,false,Rx,0,8,00,00,00,0C,1B,00,00,C6,
3171710,0000002C,false,Rx,0,8,1E,00,2F,40,B0,41,01,00,
3176920,000000E0,false,Rx,0,8,00,00,00,0C,1C,00,00,95,
3181712,0000002C,false,Rx,0,8,1E,00,2F,40,C0,B5,01,00,
3186922,000000E0,false,Rx,0,8,00,00,00,0C,1D,00,00,88,
3191715,0000002C,false,Rx,0,8,1E,00,2F,40,D0,28,01,00,
3196925,000000E0,false,Rx,0,8,00,00,00,0C,1E,00,00,AF,
3201707,0000002C,false,Rx,0,8,1E,00,2F,40,E0,92,01,00,
3206917,000000E0,false,Rx,0,8,00,00,00,0C,1F,00,00,B2,
3211711,0000002C,false,Rx,0,8,1E,00,2F,40,F0,0F,01,00,
3216921,000000E0,false,Rx,0,8,00,00,00,0C,10,00,00,09,
3221713,0000002C,false,Rx,0,8,1E,00,2F,40,00,67,01,00,
3226916,000000E0,false,Rx,0,8,00,00,00,0C,11,00,00,14,
3231708,0000002C,false,Rx,0,8,1E,00,2F,40,10,FA,01,00,
3236910,000000E0,false,Rx,0,8,00,00,00,0C,12,00,00,33,
3241703,0000002C,false,Rx,0,8,1E,00,2F,40,20,40,01,00,
3246915,000000E0,false,Rx,0,8,00,00,00,0C,13,00,00,2E,
3251697,0000002C,false,Rx,0,8,1E,00,2F,40,30,DD,01,00,
3256918,000000E0,false,Rx,0,8,00,00,00,0C,14,00,00,7D,
3261699,0000002C,false,Rx,0,8,1E,00,2F,40,40,29,01,00,
3266910,000000E0,false,Rx,0,8,00,00,00,0C,15,00,00,60,
3271701,0000002C,false,Rx,0,8,1E,00,2F,40,50,B4,01,00,
3276912,000000E0,false,Rx,0,8,00,00,00,0C,16,00,00,47,
3281694,0000002C,false,Rx,0,8,1E,00,2F,40,60,0E,01,00,
3286905,000000E0,false,Rx,0,8,00,00,00,0C,17,00,00,5A,
3291686,0000002C,false,Rx,0,8,1E,00,2F,40,70,93,01,00,
3296907,000000E0,false,Rx,0,8,00,00,00,0C,18,00,00,E1,
3301699,0000002C,false,Rx,0,8,1E,00,2F,40,80,FB,01,00,
3306910,000000E0,false,Rx,0,8,00,00,00,0C,19,00,00,FC,
3311691,0000002C,false,Rx,0,8,1E,00,2F,40,90,66,01,00,
3316912,000000E0,false,Rx,0,8,00,00,00,0C,1A,00,00,DB,
3321694,0000002C,false,Rx,0,8,1E,00,2F,40,A0,DC,01,00,
3326906,000000E0,false,Rx,0,8,00,00,00,0C,1B,00,00,C6,
3331687,0000002C,false,Rx,0,8,1E,00,2F,40,B0,41,01,00,
3336900,000000E0,false,Rx,0,8,00,00,00,0C,1C,00,00,95,
3341691,0000002C,false,Rx,0,8,1E,00,2F,40,C0,B5,01,00,
3346892,000000E0,false,Rx,0,8,00,00,00,0C,1D,00,00,88,
3351694,0000002C,false,Rx,0,8,1E,00,2F,40,D0,28,01,00,
3356895,000000E0,false,Rx,0,8,00,00,00,0C,1E,00,00,AF,
3361686,0000002C,false,Rx,0,8,1E,00,2F,40,E0,92,01,00,
3366897,000000E0,false,Rx,0,8,00,00,00,0C,1F,00,00,B2,
3371689,0000002C,false,Rx,0,8,1E,00,2F,40,F0,0F,01,00,
3376900,000000E0,false,Rx,0,8,00,00,00,0C,10,00,00,09,
3381691,0000002C,false,Rx,0,8,1E,00,2F,40,00,67,01,00,
3386892,000000E0,false,Rx,0,8,00,00,00,0C,11,00,00,14,
3391684,0000002C,false,Rx,0,8,1E,00,2F,40,10,FA,01,00,
3396885,000000E0,false,Rx,0,8,00,00,00,0C,12,00,00,33,
3401676,0000002C,false,Rx,0,8,1E,00,2F,40,20,40,01,00,
3406887,000000E0,false,Rx,0,8,00,00,00,0C,13,00,00,2E,
3411679,0000002C,false,Rx,0,8,1E,00,2F,40,30,DD,01,00,
3416890,000000E0,false,Rx,0,8,00,00,00,0C,14,00,00,7D,
3421671,0000002C,false,Rx,0,8,1E,00,2F,40,40,29,01,00,
3426893,000000E0,false,Rx,0,8,00,00,00,0C,15,00,00,60,
3431673,0000002C,false,Rx,0,8,1E,00,2F,40,50,B4,01,00,
3436885,000000E0,false,Rx,0,8,00,00,00,0C,16,00,00,47,
3441676,0000002C,false,Rx,0,8,1E,00,2F,40,60,0E,01,00,
3446877,000000E0,false,Rx,0,8,00,00,00,0C,17,00,00,5A,
3451669,0000002C,false,Rx,0,8,1E,00,2F,40,70,93,01,00,
3456880,000000E0,false,Rx,0,8,00,00,00,0C,18,00,00,E1,
3461671,0000002C,false,Rx,0,8,1E,00,2F,40,80,FB,01,00,
3466882,000000E0,false,Rx,0,8,00,00,00,0C,19,00,00,FC,
3471673,0000002C,false,Rx,0,8,1E,00,2F,40,90,66,01,00,
3476875,000000E0,false,Rx,0,8,00,00,00,0C,1A,00,00,DB,
3481666,0000002C,false,Rx,0,8,1E,00,2F,40,A0,DC,01,00,
3486877,000000E0,false,Rx,0,8,00,00,00,0C,1B,00,00,C6,
3491669,0000002C,false,Rx,0,8,1E,00,2F,40,B0,41,01,00,
3496871,000000E0,false,Rx,0,8,00,00,00,0C,1C,00,00,95,
3501661,0000002C,false,Rx,0,8,1E,00,2F,40,C0,B5,01,00,
3506873,000000E0,false,Rx,0,8,00,00,00,0C,1D,00,00,88,
3511664,0000002C,false,Rx,0,8,1E,00,2F,40,D0,28,01,00,
3516876,000000E0,false,Rx,0,8,00,00,00,0C,1E,00,00,AF,
3521666,0000002C,false,Rx,0,8,1E,00,2F,40,E0,92,01,00,
3526877,000000E0,false,Rx,0,8,00,00,00,0C,1F,00,00,B2,
3531669,0000002C,false,Rx,0,8,1E,00,2F,40,F0,0F,01,00,
3536880,000000E0,false,Rx,0,8,00,00,00,0C,10,00,00,09,
3541671,0000002C,false,Rx,0,8,1E,00,2F,40,00,67,01,00,
3546872,000000E0,false,Rx,0,8,00,00,00,0C,11,00,00,14,
3551664,0000002C,false,Rx,0,8,1E,00,2F,40,10,FA,01,00,
3556866,000000E0,false,Rx,0,8,00,00,00,0C,12,00,00,33,
3561656,0000002C,false,Rx,0,8,1E,00,2F,40,20,40,01,00,
3566867,000000E0,false,Rx,0,8,00,00,00,0C,13,00,00,2E,
3571649,0000002C,false,Rx,0,8,1E,00,2F,40,30,DD,01,00,
3576861,000000E0,false,Rx,0,8,00,00,00,0C,14,00,00,7D,
3581652,0000002C,false,Rx,0,8,1E,00,2F,40,40,29,01,00,
3586864,000000E0,false,Rx,0,8,00,00,00,0C,15,00,00,60,
3591655,0000002C,false,Rx,0,8,1E,00,2F,40,50,B4,01,00,
3596866,000000E0,false,Rx,0,8,00,00,00,0C,16,00,00,47,
3601649,0000002C,false,Rx,0,8,1E,00,2F,40,60,0E,01,00,
3606860,000000E0,false,Rx,0,8,00,00,00,0C,17,00,00,5A,
3611641,0000002C,false,Rx,0,8,1E,00,2F,40,70,93,01,00,
3616852,000000E0,false,Rx,0,8,00,00,00,0C,18,00,00,E1,
3621644,0000002C,false,Rx,0,8,1E,00,2F,40,80,FB,01,00,
3626855,000000E0,false,Rx,0,8,00,00,00,0C,19,00,00,FC,
3631646,0000002C,false,Rx,0,8,1E,00,2F,40,90,66,01,00,
3636857,000000E0,false,Rx,0,8,00,00,00,0C,1A,00,00,DB,
3641639,0000002C,false,Rx,0,8,1E,00,2F,40,A0,DC,01,00,
3646851,000000E0,false,Rx,0,8,00,00,00,0C,1B,00,00,C6,
3651642,0000002C,false,Rx,0,8,1E,00,2F,40,B0,41,01,00,
3656855,000000E0,false,Rx,0,8,00,00,00,0C,1C,00,00,95,
3661636,0000002C,false,Rx,0,8,1E,00,2F,40,C0,B5,01,00,
3666846,000000E0,false,Rx,0,8,00,00,00,0C,1D,00,00,88,
3671649,0000002C,false,Rx,0,8,1E,00,2F,40,D0,28,01,00,
3676850,000000E0,false,Rx,0,8,00,00,00,0C,1E,00,00,AF,
3681642,0000002C,false,Rx,0,8,1E,00,2F,40,E0,92,01,00,
3686852,000000E0,false,Rx,0,8,00,00,00,0C,1F,00,00,B2,
3691636,0000002C,false,Rx,0,8,1E,00,2F,40,F0,0F,01,00,
3696856,000000E0,false,Rx,0,8,00,00,00,0C,10,00,00,09,
3701648,0000002C,false,Rx,0,8,1E,00,2F,40,00,67,01,00,
3706840,000000E0,false,Rx,0,8,00,00,00,0C,11,00,00,14,
3711632,0000002C,false,Rx,0,8,1E,00,2F,40,10,FA,01,00,
3716842,000000E0,false,Rx,0,8,00,00,00,0C,12,00,00,33,
3721634,0000002C,false,Rx,0,8,1E,00,2F,40,20,40,01,00,
3726845,000000E0,false,Rx,0,8,00,00,00,0C,13,00,00,2E,
3731627,0000002C,false,Rx,0,8,1E,00,2F,40,30,DD,01,00,
3736847,000000E0,false,Rx,0,8,00,00,00,0C,14,00,00,7D,
3741629,0000002C,false,Rx,0,8,1E,00,2F,40,40,29,01,00,
3746840,000000E0,false,Rx,0,8,00,00,00,0C,15,00,00,60,
3751623,0000002C,false,Rx,0,8,1E,00,2F,40,50,B4,01,00,
3756842,000000E0,false,Rx,0,8,00,00,00,0C,16,00,00,47,
3761634,0000002C,false,Rx,0,8,1E,00,2F,40,60,0E,01,00,
3766835,000000E0,false,Rx,0,8,00,00,00,0C,17,00,00,5A,
3771617,0000002C,false,Rx,0,8,1E,00,2F,40,70,93,01,00,
3776837,000000E0,false,Rx,0,8,00,00,00,0C,18,00,00,E1,
3781630,0000002C,false,Rx,0,8,1E,00,2F,40,80,FB,01,00,
3786830,000000E0,false,Rx,0,8,00,00,00,0C,19,00,00,FC,
3791622,0000002C,false,Rx,0,8,1E,00,2F,40,90,66,01,00,
3796833,000000E0,false,Rx,0,8,00,00,00,0C,1A,00,00,DB,
3801614,0000002C,false,Rx,0,8,1E,00,2F,40,A0,DC,01,00,
3806836,000000E0,false,Rx,0,8,00,00,00,0C,1B,00,00,C6,
3811617,0000002C,false,Rx,0,8,1E,00,2F,40,B0,41,01,00,
3816828,000000E0,false,Rx,0,8,00,00,00,0C,1C,00,00,95,
3821619,0000002C,false,Rx,0,8,1E,00,2F,40,C0,B5,01,00,
3826831,000000E0,false,Rx,0,8,00,00,00,0C,1D,00,00,88,
3831621,0000002C,false,Rx,0,8,1E,00,2F,40,D0,28,01,00,
3836825,000000E0,false,Rx,0,8,00,00,00,0C,1E,00,00,AF,
3841616,0000002C,false,Rx,0,8,1E,00,2F,40,E0,92,01,00,
3846827,000000E0,false,Rx,0,8,00,00,00,0C,1F,00,00,B2,
3851619,0000002C,false,Rx,0,8,1E,00,2F,40,F0,0F,01,00,
3856831,000000E0,false,Rx,0,8,00,00,00,0C,10,00,00,09,
3861621,0000002C,false,Rx,0,8,1E,00,2F,40,00,67,01,00,
3866822,000000E0,false,Rx,0,8,00,00,00,0C,11,00,00,14,
3871613,0000002C,false,Rx,0,8,1E,00,2F,40,10,FA,01,00,
3876824,000000E0,false,Rx,0,8,00,00,00,0C,12,00,00,33,
3881605,0000002C,false,Rx,0,8,1E,00,2F,40,20,40,01,00,
3886816,000000E0,false,Rx,0,8,00,00,00,0C,13,00,00,2E,
3891607,0000002C,false,Rx,0,8,1E,00,2F,40,30,DD,01,00,
3896818,000000E0,false,Rx,0,8,00,00,00,0C,14,00,00,7D,
3901599,0000002C,false,Rx,0,8,1E,00,2F,40,40,29,01,00,
3906820,000000E0,false,Rx,0,8,00,00,00,0C,15,00,00,60,
3911601,0000002C,false,Rx,0,8,1E,00,2F,40,50,B4,01,00,
3916812,000000E0,false,Rx,0,8,00,00,00,0C,16,00,00,47,
3921603,0000002C,false,Rx,0,8,1E,00,2F,40,60,0E,01,00,
3926815,000000E0,false,Rx,0,8,00,00,00,0C,17,00,00,5A,
3931596,0000002C,false,Rx,0,8,1E,00,2F,40,70,93,01,00,
3936807,000000E0,false,Rx,0,8,00,00,00,0C,18,00,00,E1,
3941599,0000002C,false,Rx,0,8,1E,00,2F,40,80,FB,01,00,
3946811,000000E0,false,Rx,0,8,00,00,00,0C,19,00,00,FC,
3951601,0000002C,false,Rx,0,8,1E,00,2F,40,90,66,01,00,
3956812,000000E0,false,Rx,0,8,00,00,00,0C,1A,00,00,DB,
3961594,0000002C,false,Rx,0,8,1E,00,2F,40,A0,DC,01,00,
3966816,000000E0,false,Rx,0,8,00,00,00,0C,1B,00,00,C6,
3971596,0000002C,false,Rx,0,8,1E,00,2F,40,B0,41,01,00,
3976808,000000E0,false,Rx,0,8,00,00,00,0C,1C,00,00,95,
3981589,0000002C,false,Rx,0,8,1E,00,2F,40,C0,B5,01,00,
3986810,000000E0,false,Rx,0,8,00,00,00,0C,1D,00,00,88,
3991601,0000002C,false,Rx,0,8,1E,00,2F,40,D0,28,01,00,
3996812,000000E0,false,Rx,0,8,00,00,00,0C,1E,00,00,AF,
4001594,0000002C,false,Rx,0,8,1E,00,2F,40,E0,92,01,00,
4006805,000000E0,false,Rx,0,8,00,00,00,0C,1F,00,00,B2,
4011596,0000002C,false,Rx,0,8,1E,00,2F,40,F0,0F,01,00,
4016807,000000E0,false,Rx,0,8,00,00,00,0C,10,00,00,09,
4021598,0000002C,false,Rx,0,8,1E,00,2F,40,00,67,01,00,
4026800,000000E0,false,Rx,0,8,00,00,00,0C,11,00,00,14,
4031591,0000002C,false,Rx,0,8,1E,00,2F,40,10,FA,01,00,
4036792,000000E0,false,Rx,0,8,00,00,00,0C,12,00,00,33,
4041584,0000002C,false,Rx,0,8,1E,00,2F,40,20,40,01,00,
4046795,000000E0,false,Rx,0,8,00,00,00,0C,13,00,00,2E,
4051576,0000002C,false,Rx,0,8,1E,00,2F,40,30,DD,01,00,
4056798,000000E0,false,Rx,0,8,00,00,00,0C,14,00,00,7D,
4061579,0000002C,false,Rx,0,8,1E,00,2F,40,40,29,01,00,
4066790,000000E0,false,Rx,0,8,00,00,00,0C,15,00,00,60,
4071581,0000002C,false,Rx,0,8,1E,00,2F,40,50,B4,01,00,
4076792,000000E0,false,Rx,0,8,00,00,00,0C,16,00,00,47,
4081583,0000002C,false,Rx,0,8,1E,00,2F,40,60,0E,01,00,
4086785,000000E0,false,Rx,0,8,00,00,00,0C,17,00,00,5A,
4091576,0000002C,false,Rx,0,8,1E,00,2F,40,70,93,01,00,
4096788,000000E0,false,Rx,0,8,00,00,00,0C,18,00,00,E1,
4101581,0000002C,false,Rx,0,8,1E,00,2F,40,80,FB,01,00,
4106782,000000E0,false,Rx,0,8,00,00,00,0C,19,00,00,FC,
4111573,0000002C,false,Rx,0,8,1E,00,2F,40,90,66,01,00,
4116785,000000E0,false,Rx,0,8,00,00,00,0C,1A,00,00,DB,
4121566,0000002C,false,Rx,0,8,1E,00,2F,40,A0,DC,01,00,
4126787,000000E0,false,Rx,0,8,00,00,00,0C,1B,00,00,C6,
4131579,0000002C,false,Rx,0,8,1E,00,2F,40,B0,41,01,00,
4136781,000000E0,false,Rx,0,8,00,00,00,0C,1C,00,00,95,
4141571,0000002C,false,Rx,0,8,1E,00,2F,40,C0,B5,01,00,
4146782,000000E0,false,Rx,0,8,00,00,00,0C,1D,00,00,88,
4151573,0000002C,false,Rx,0,8,1E,00,2F,40,D0,28,01,00,
4156785,000000E0,false,Rx,0,8,00,00,00,0C,1E,00,00,AF,
4161566,0000002C,false,Rx,0,8,1E,00,2F,40,E0,92,01,00,
4166777,000000E0,false,Rx,0,8,00,00,00,0C,1F,00,00,B2,
4171568,0000002C,false,Rx,0,8,1E,00,2F,40,F0,0F,01,00,
4176780,000000E0,false,Rx,0,8,00,00,00,0C,10,00,00,09,
4181571,0000002C,false,Rx,0,8,1E,00,2F,40,00,67,01,00,
4186772,000000E0,false,Rx,0,8,00,00,00,0C,11,00,00,14,
4191563,0000002C,false,Rx,0,8,1E,00,2F,40,10,FA,01,00,
4196775,000000E0,false,Rx,0,8,00,00,00,0C,12,00,00,33,
4201567,0000002C,false,Rx,0,8,1E,00,2F,40,20,40,01,00,
4206777,000000E0,false,Rx,0,8,00,00,00,0C,13,00,00,2E,
4211561,0000002C,false,Rx,0,8,1E,00,2F,40,30,DD,01,00,
4216771,000000E0,false,Rx,0,8,00,00,00,0C,14,00,00,7D,
4221562,0000002C,false,Rx,0,8,1E,00,2F,40,40,29,01,00,
4226772,000000E0,false,Rx,0,8,00,00,00,0C,15,00,00,60,
4231556,0000002C,false,Rx,0,8,1E,00,2F,40,50,B4,01,00,
4236775,000000E0,false,Rx,0,8,00,00,00,0C,16,00,00,47,
4241557,0000002C,false,Rx,0,8,1E,00,2F,40,60,0E,01,00,
4246767,000000E0,false,Rx,0,8,00,00,00,0C,17,00,00,5A,
4251549,0000002C,false,Rx,0,8,1E,00,2F,40,70,93,01,00,
4256769,000000E0,false,Rx,0,8,00,00,00,0C,18,00,00,E1,
4261551,0000002C,false,Rx,0,8,1E,00,2F,40,80,FB,01,00,
4266761,000000E0,false,Rx,0,8,00,00,00,0C,19,00,00,FC,
4271554,0000002C,false,Rx,0,8,1E,00,2F,40,90,66,01,00,
4276764,000000E0,false,Rx,0,8,00,00,00,0C,1A,00,00,DB,
4281546,0000002C,false,Rx,0,8,1E,00,2F,40,A0,DC,01,00,
4286767,000000E0,false,Rx,0,8,00,00,00,0C,1B,00,00,C6,
4291550,0000002C,false,Rx,0,8,1E,00,2F,40,B0,41,01,00,
4296761,000000E0,false,Rx,0,8,00,00,00,0C,1C,00,00,95,
4301542,0000002C,false,Rx,0,8,1E,00,2F,40,C0,B5,01,00,
4306752,000000E0,false,Rx,0,8,00,00,00,0C,1D,00,00,88,
4311555,0000002C,false,Rx,0,8,1E,00,2F,40,D0,28,01,00,
4316756,000000E0,false,Rx,0,8,00,00,00,0C,1E,00,00,AF,
4321548,0000002C,false,Rx,0,8,1E,00,2F,40,E0,92,01,00,
4326759,000000E0,false,Rx,0,8,00,00,00,0C,1F,00,00,B2,
4331549,0000002C,false,Rx,0,8,1E,00,2F,40,F0,0F,01,00,
4336760,000000E0,false,Rx,0,8,00,00,00,0C,10,00,00,09,
4341541,0000002C,false,Rx,0,8,1E,00,2F,40,00,67,01,00,
4346752,000000E0,false,Rx,0,8,00,00,00,0C,11,00,00,14,
4351546,0000002C,false,Rx,0,8,1E,00,2F,40,10,FA,01,00,
4356747,000000E0,false,Rx,0,8,00,00,00,0C,12,00,00,33,
4361540,0000002C,false,Rx,0,8,1E,00,2F,40,20,40,01,00,
4366752,000000E0,false,Rx,0,8,00,00,00,0C,13,00,00,2E,
4371532,0000002C,false,Rx,0,8,1E,00,2F,40,30,DD,01,00,
4376744,000000E0,false,Rx,0,8,00,00,00,0C,14,00,00,7D,
4381534,0000002C,false,Rx,0,8,1E,00,2F,40,40,29,01,00,
4386745,000000E0,false,Rx,0,8,00,00,00,0C,15,00,00,60,
4391525,0000002C,false,Rx,0,8,1E,00,2F,40,50,B4,01,00,
4396747,000000E0,false,Rx,0,8,00,00,00,0C,16,00,00,47,
4401540,0000002C,false,Rx,0,8,1E,00,2F,40,60,0E,01,00,
4406742,000000E0,false,Rx,0,8,00,00,00,0C,17,00,00,5A,
4411532,0000002C,false,Rx,0,8,1E,00,2F,40,70,93,01,00,
4416743,000000E0,false,Rx,0,8,00,00,00,0C,18,00,00,E1,
4421534,0000002C,false,Rx,0,8,1E,00,2F,40,80,FB,01,00,
4426745,000000E0,false,Rx,0,8,00,00,00,0C,19,00,00,FC,
4431536,0000002C,false,Rx,0,8,1E,00,2F,40,90,66,01,00,
4436737,000000E0,false,Rx,0,8,00,00,00,0C,1A,00,00,DB,
4441526,0000002C,false,Rx,0,8,1E,00,2F,40,A0,DC,01,00,
4446739,000000E0,false,Rx,0,8,00,00,00,0C,1B,00,00,C6,
4451530,0000002C,false,Rx,0,8,1E,00,2F,40,B0,41,01,00,
4456731,000000E0,false,Rx,0,8,00,00,00,0C,1C,00,00,95,
4461520,0000002C,false,Rx,0,8,1E,00,2F,40,C0,B5,01,00,
4466733,000000E0,false,Rx,0,8,00,00,00,0C,1D,00,00,88,
4471533,0000002C,false,Rx,0,8,1E,00,2F,40,D0,28,01,00,
4476734,000000E0,false,Rx,0,8,00,00,00,0C,1E,00,00,AF,
4481525,0000002C,false,Rx,0,8,1E,00,2F,40,E0,92,01,00,
4486737,000000E0,false,Rx,0,8,00,00,00,0C,1F,00,00,B2,
4491526,0000002C,false,Rx,0,8,1E,00,2F,40,F0,0F,01,00,
4496729,000000E0,false,Rx,0,8,00,00,00,0C,10,00,00,09,
4501518,0000002C,false,Rx,0,8,1E,00,2F,40,00,67,01,00,
4506731,000000E0,false,Rx,0,8,00,00,00,0C,11,00,00,14,
4511521,0000002C,false,Rx,0,8,1E,00,2F,40,10,FA,01,00,
4516723,000000E0,false,Rx,0,8,00,00,00,0C,12,00,00,33,
4521514,0000002C,false,Rx,0,8,1E,00,2F,40,20,40,01,00,
4526726,000000E0,false,Rx,0,8,00,00,00,0C,13,00,00,2E,
4531516,0000002C,false,Rx,0,8,1E,00,2F,40,30,DD,01,00,
4536729,000000E0,false,Rx,0,8,00,00,00,0C,14,00,00,7D,
4541509,0000002C,false,Rx,0,8,1E,00,2F,40,40,29,01,00,
4546721,000000E0,false,Rx,0,8,00,00,00,0C,15,00,00,60,
4551510,0000002C,false,Rx,0,8,1E,00,2F,40,50,B4,01,00,
4556733,000000E0,false,Rx,0,8,00,00,00,0C,16,00,00,47,
4561512,0000002C,false,Rx,0,8,1E,00,2F,40,60,0E,01,00,
4566716,000000E0,false,Rx,0,8,00,00,00,0C,17,00,00,5A,
4571506,0000002C,false,Rx,0,8,1E,00,2F,40,70,93,01,00,
4576718,000000E0,false,Rx,0,8,00,00,00,0C,18,00,00,E1,
4581509,0000002C,false,Rx,0,8,1E,00,2F,40,80,FB,01,00,
4586721,000000E0,false,Rx,0,8,00,00,00,0C,19,00,00,FC,
4591501,0000002C,false,Rx,0,8,1E,00,2F,40,90,66,01,00,
4596715,000000E0,false,Rx,0,8,00,00,00,0C,1A,00,00,DB,
4601495,0000002C,false,Rx,0,8,1E,00,2F,40,A0,DC,01,00,
4606717,000000E0,false,Rx,0,8,00,00,00,0C,1B,00,00,C6,
4611506,0000002C,false,Rx,0,8,1E,00,2F,40,B0,41,01,00,
4616709,000000E0,false,Rx,0,8,00,00,00,0C,1C,00,00,95,
4621499,0000002C,false,Rx,0,8,1E,00,2F,40,C0,B5,01,00,
4626711,000000E0,false,Rx,0,8,00,00,00,0C,1D,00,00,88,
4631510,0000002C,false,Rx,0,8,1E,00,2F,40,D0,28,01,00,
4636713,000000E0,false,Rx,0,8,00,00,00,0C,1E,00,00,AF,
4641504,0000002C,false,Rx,0,8,1E,00,2F,40,E0,92,01,00,
4646716,000000E0,false,Rx,0,8,00,00,00,0C,1F,00,00,B2,
4651496,0000002C,false,Rx,0,8,1E,00,2F,40,F0,0F,01,00,
4656709,000000E0,false,Rx,0,8,00,00,00,0C,10,00,00,09,
4661499,0000002C,false,Rx,0,8,1E,00,2F,40,00,67,01,00,
4666711,000000E0,false,Rx,0,8,00,00,00,0C,11,00,00,14,
4671501,0000002C,false,Rx,0,8,1E,00,2F,40,10,FA,01,00,
4676704,000000E0,false,Rx,0,8,00,00,00,0C,12,00,00,33,
4681494,0000002C,false,Rx,0,8,1E,00,2F,40,20,40,01,00,
4686706,000000E0,false,Rx,0,8,00,00,00,0C,13,00,00,2E,
4691486,0000002C,false,Rx,0,8,1E,00,2F,40,30,DD,01,00,
4696699,000000E0,false,Rx,0,8,00,00,00,0C,14,00,00,7D,
4701489,0000002C,false,Rx,0,8,1E,00,2F,40,40,29,01,00,
4706701,000000E0,false,Rx,0,8,00,00,00,0C,15,00,00,60,
4711481,0000002C,false,Rx,0,8,1E,00,2F,40,50,B4,01,00,
4716703,000000E0,false,Rx,0,8,00,00,00,0C,16,00,00,47,
4721484,0000002C,false,Rx,0,8,1E,00,2F,40,60,0E,01,00,
4726696,000000E0,false,Rx,0,8,00,00,00,0C,17,00,00,5A,
4731476,0000002C,false,Rx,0,8,1E,00,2F,40,70,93,01,00,
4736699,000000E0,false,Rx,0,8,00,00,00,0C,18,00,00,E1,
4741490,0000002C,false,Rx,0,8,1E,00,2F,40,80,FB,01,00,
4746691,000000E0,false,Rx,0,8,00,00,00,0C,19,00,00,FC,
4751482,0000002C,false,Rx,0,8,1E,00,2F,40,90,66,01,00,
4756694,000000E0,false,Rx,0,8,00,00,00,0C,1A,00,00,DB,
4761475,0000002C,false,Rx,0,8,1E,00,2F,40,A0,DC,01,00,
4766686,000000E0,false,Rx,0,8,00,00,00,0C,1B,00,00,C6,
4771477,0000002C,false,Rx,0,8,1E,00,2F,40,B0,41,01,00,
4776689,000000E0,false,Rx,0,8,00,00,00,0C,1C,00,00,95,
4781480,0000002C,false,Rx,0,8,1E,00,2F,40,C0,B5,01,00,
4786691,000000E0,false,Rx,0,8,00,00,00,0C,1D,00,00,88,
4791482,0000002C,false,Rx,0,8,1E,00,2F,40,D0,28,01,00,
4796693,000000E0,false,Rx,0,8,00,00,00,0C,1E,00,00,AF,
4801474,0000002C,false,Rx,0,8,1E,00,2F,40,E0,92,01,00,
4806685,000000E0,false,Rx,0,8,00,00,00,0C,1F,00,00,B2,
4811476,0000002C,false,Rx,0,8,1E,00,2F,40,F0,0F,01,00,
4816687,000000E0,false,Rx,0,8,00,00,00,0C,10,00,00,09,
4821480,0000002C,false,Rx,0,8,1E,00,2F,40,00,67,01,00,
4826681,000000E0,false,Rx,0,8,00,00,00,0C,11,00,00,14,
4831475,0000002C,false,Rx,0,8,1E,00,2F,40,10,FA,01,00,
4836676,000000E0,false,Rx,0,8,00,00,00,0C,12,00,00,33,
4841469,0000002C,false,Rx,0,8,1E,00,2F,40,20,40,01,00,
4846683,000000E0,false,Rx,0,8,00,00,00,0C,13,00,00,2E,
4851465,0000002C,false,Rx,0,8,1E,00,2F,40,30,DD,01,00,
4856677,000000E0,false,Rx,0,8,00,00,00,0C,14,00,00,7D,
4861467,0000002C,false,Rx,0,8,1E,00,2F,40,40,29,01,00,
4866679,000000E0,false,Rx,0,8,00,00,00,0C,15,00,00,60,
4871459,0000002C,false,Rx,0,8,1E,00,2F,40,50,B4,01,00,
4876681,000000E0,false,Rx,0,8,00,00,00,0C,16,00,00,47,
4881470,0000002C,false,Rx,0,8,1E,00,2F,40,60,0E,01,00,
4886673,000000E0,false,Rx,0,8,00,00,00,0C,17,00,00,5A,
4891455,0000002C,false,Rx,0,8,1E,00,2F,40,70,93,01,00,
4896668,000000E0,false,Rx,0,8,00,00,00,0C,18,00,00,E1,
4901460,0000002C,false,Rx,0,8,1E,00,2F,40,80,FB,01,00,
4906672,000000E0,false,Rx,0,8,00,00,00,0C,19,00,00,FC,
4911462,0000002C,false,Rx,0,8,1E,00,2F,40,90,66,01,00,
4916665,000000E0,false,Rx,0,8,00,00,00,0C,1A,00,00,DB,
4921455,0000002C,false,Rx,0,8,1E,00,2F,40,A0,DC,01,00,
4926668,000000E0,false,Rx,0,8,00,00,00,0C,1B,00,00,C6,
4931457,0000002C,false,Rx,0,8,1E,00,2F,40,B0,41,01,00,
4936671,000000E0,false,Rx,0,8,00,00,00,0C,1C,00,00,95,
4941451,0000002C,false,Rx,0,8,1E,00,2F,40,C0,B5,01,00,
4946664,000000E0,false,Rx,0,8,00,00,00,0C,1D,00,00,88,
4951454,0000002C,false,Rx,0,8,1E,00,2F,40,D0,28,01,00,
4956666,000000E0,false,Rx,0,8,00,00,00,0C,1E,00,00,AF,
4961456,0000002C,false,Rx,0,8,1E,00,2F,40,E0,92,01,00,
4966668,000000E0,false,Rx,0,8,00,00,00,0C,1F,00,00,B2,
4971450,0000002C,false,Rx,0,8,1E,00,2F,40,F0,0F,01,00,
4976662,000000E0,false,Rx,0,8,00,00,00,0C,10,00,00,09,
4981452,0000002C,false,Rx,0,8,1E,00,2F,40,00,67,01,00,
4986665,000000E0,false,Rx,0,8,00,00,00,0C,11,00,00,14,
4991454,0000002C,false,Rx,0,8,1E,00,2F,40,10,FA,01,00,
4996657,000000E0,false,Rx,0,8,00,00,00,0C,12,00,00,33,
5001446,0000002C,false,Rx,0,8,1E,00,2F,40,20,40,01,00,
5006659,000000E0,false,Rx,0,8,00,00,00,0C,13,00,00,2E,
5011439,0000002C,false,Rx,0,8,1E,00,2F,40,30,DD,01,00,
5016652,000000E0,false,Rx,0,8,00,00,00,0C,14,00,00,7D,
5021441,0000002C,false,Rx,0,8,1E,00,2F,40,40,29,01,00,
5026654,000000E0,false,Rx,0,8,00,00,00,0C,15,00,00,60,
5031434,0000002C,false,Rx,0,8,1E,00,2F,40,50,B4,01,00,
5036657,000000E0,false,Rx,0,8,00,00,00,0C,16,00,00,47,
5041436,0000002C,false,Rx,0,8,1E,00,2F,40,60,0E,01,00,
5046649,000000E0,false,Rx,0,8,00,00,00,0C,17,00,00,5A,
5051429,0000002C,false,Rx,0,8,1E,00,2F,40,70,93,01,00,
5056641,000000E0,false,Rx,0,8,00,00,00,0C,18,00,00,E1,
5061441,0000002C,false,Rx,0,8,1E,00,2F,40,80,FB,01,00,
5066643,000000E0,false,Rx,0,8,00,00,00,0C,19,00,00,FC,
5071432,0000002C,false,Rx,0,8,1E,00,2F,40,90,66,01,00,
5076646,000000E0,false,Rx,0,8,00,00,00,0C,1A,00,00,DB,
5081435,0000002C,false,Rx,0,8,1E,00,2F,40,A0,DC,01,00,
5086650,000000E0,false,Rx,0,8,00,00,00,0C,1B,00,00,C6,
5091429,0000002C,false,Rx,0,8,1E,00,2F,40,B0,41,01,00,
5096651,000000E0,false,Rx,0,8,00,00,00,0C,1C,00,00,95,
5101431,0000002C,false,Rx,0,8,1E,00,2F,40,C0,B5,01,00,
5106643,000000E0,false,Rx,0,8,00,00,00,0C,1D,00,00,88,
5111432,0000002C,false,Rx,0,8,1E,00,2F,40,D0,28,01,00,
5116646,000000E0,false,Rx,0,8,00,00,00,0C,1E,00,00,AF,
5121426,0000002C,false,Rx,0,8,1E,00,2F,40,E0,92,01,00,
5126638,000000E0,false,Rx,0,8,00,00,00,0C,1F,00,00,B2,
5131430,0000002C,false,Rx,0,8,1E,00,2F,40,F0,0F,01,00,
5136641,000000E0,false,Rx,0,8,00,00,00,0C,10,00,00,09,
5141431,0000002C,false,Rx,0,8,1E,00,2F,40,00,67,01,00,
5146633,000000E0,false,Rx,0,8,00,00,00,0C,11,00,00,14,
5151424,0000002C,false,Rx,0,8,1E,00,2F,40,10,FA,01,00,
5156636,000000E0,false,Rx,0,8,00,00,00,0C,12,00,00,33,
5161416,0000002C,false,Rx,0,8,1E,00,2F,40,20,40,01,00,
5166628,000000E0,false,Rx,0,8,00,00,00,0C,13,00,00,2E,
5171419,0000002C,false,Rx,0,8,1E,00,2F,40,30,DD,01,00,
5176631,000000E0,false,Rx,0,8,00,00,00,0C,14,00,00,7D,
5181421,0000002C,false,Rx,0,8,1E,00,2F,40,40,29,01,00,
5186633,000000E0,false,Rx,0,8,00,00,00,0C,15,00,00,60,
