Time Stamp,ID,Extended,Dir,Bus,LEN,D1,D2,D3,D4,D5,D6,D7,D8
2105217,0000002C,false,Rx,0,8,1E,00,2F,52,30,9B,00,80,
2110429,000000E0,false,Rx,0,8,00,00,00,0C,04,00,00,B0,
2115219,0000002C,false,Rx,0,8,1E,00,2F,52,40,6F,00,80,
2120421,000000E0,false,Rx,0,8,00,00,00,0C,05,00,00,AD,
2125202,0000002C,false,Rx,0,8,1E,00,2F,52,50,F2,00,80,
2130424,000000E0,false,Rx,0,8,00,00,00,0C,06,00,00,8A,
2135214,0000002C,false,Rx,0,8,1E,00,2F,52,60,48,00,80,
2140426,000000E0,false,Rx,0,8,00,00,00,0C,07,00,00,97,
2145207,0000002C,false,Rx,0,8,1E,00,2F,52,70,D5,00,80,
2150419,000000E0,false,Rx,0,8,00,00,00,0C,08,00,00,2C,
2155210,0000002C,false,Rx,0,8,1E,00,2F,52,80,BD,00,80,
2160421,000000E0,false,Rx,0,8,00,00,00,0C,09,00,00,31,
2165212,0000002C,false,Rx,0,8,1E,00,2F,52,90,20,00,80,
2170426,000000E0,false,Rx,0,8,00,00,00,0C,0A,00,00,16,
2175207,0000002C,false,Rx,0,8,1E,00,2F,52,A0,9A,00,80,
2180419,000000E0,false,Rx,0,8,00,00,00,0C,0B,00,00,0B,
2185200,0000002C,false,Rx,0,8,1E,00,2F,52,B0,07,00,80,
2190421,000000E0,false,Rx,0,8,00,00,00,0C,0C,00,00,58,
2195212,0000002C,false,Rx,0,8,1E,00,2F,52,C0,F3,00,80,
2200414,000000E0,false,Rx,0,8,00,00,00,0C,0D,00,00,45,
2205195,0000002C,false,Rx,0,8,1E,00,2F,52,D0,6E,00,80,
2210416,000000E0,false,Rx,0,8,00,00,00,0C,0E,00,00,62,
2215198,0000002C,false,Rx,0,8,1E,00,2F,52,E0,D4,00,80,
2220409,000000E0,false,Rx,0,8,00,00,00,0C,0F,00,00,7F,
2225201,0000002C,false,Rx,0,8,1E,00,2F,52,F0,49,00,80,
2230411,000000E0,false,Rx,0,8,00,00,00,0C,00,00,00,C4,
2235204,0000002C,false,Rx,0,8,1E,00,2F,52,00,21,00,80,
2240414,000000E0,false,Rx,0,8,00,00,00,0C,01,00,00,D9,
2245196,0000002C,false,Rx,0,8,1E,00,2F,52,10,BC,00,80,
2250406,000000E0,false,Rx,0,8,00,00,00,0C,02,00,00,FE,
2255199,0000002C,false,Rx,0,8,1E,00,2F,52,20,06,00,80,
2260410,000000E0,false,Rx,0,8,00,00,00,0C,03,00,00,E3,
2265191,0000002C,false,Rx,0,8,1E,00,2F,52,30,9B,00,80,
2270411,000000E0,false,Rx,0,8,00,00,00,0C,04,00,00,B0,
2275195,0000002C,false,Rx,0,8,1E,00,2F,52,40,6F,00,80,
2280404,000000E0,false,Rx,0,8,00,00,00,0C,05,00,00,AD,
2285187,0000002C,false,Rx,0,8,1E,00,2F,52,50,F2,00,80,
2290397,000000E0,false,Rx,0,8,00,00,00,0C,06,00,00,8A,
2295189,0000002C,false,Rx,0,8,1E,00,2F,52,60,48,00,80,
2300399,000000E0,false,Rx,0,8,00,00,00,0C,07,00,00,97,
2305191,0000002C,false,Rx,0,8,1E,00,2F,52,70,D5,00,80,
2310401,000000E0,false,Rx,0,8,00,00,00,0C,08,00,00,2C,
2315184,0000002C,false,Rx,0,8,1E,00,2F,52,80,BD,00,80,
2320394,000000E0,false,Rx,0,8,00,00,00,0C,09,00,00,31,
2325186,0000002C,false,Rx,0,8,1E,00,2F,52,90,20,00,80,
2330408,000000E0,false,Rx,0,8,00,00,00,0C,0A,00,00,16,
2335189,0000002C,false,Rx,0,8,1E,00,2F,52,A0,9A,00,80,
2340400,000000E0,false,Rx,0,8,00,00,00,0C,0B,00,00,0B,
2345181,0000002C,false,Rx,0,8,1E,00,2F,52,B0,07,00,80,
2350393,000000E0,false,Rx,0,8,00,00,00,0C,0C,00,00,58,
2355175,0000002C,false,Rx,0,8,1E,00,2F,52,C0,F3,00,80,
2360386,000000E0,false,Rx,0,8,00,00,00,0C,0D,00,00,45,
2365177,0000002C,false,Rx,0,8,1E,00,2F,52,D0,6E,00,80,
2370389,000000E0,false,Rx,0,8,00,00,00,0C,0E,00,00,62,
2375179,0000002C,false,Rx,0,8,1E,00,2F,52,E0,D4,00,80,
2380392,000000E0,false,Rx,0,8,00,00,00,0C,0F,00,00,7F,
2385172,0000002C,false,Rx,0,8,1E,00,2F,52,F0,49,00,80,
2390394,000000E0,false,Rx,0,8,00,00,00,0C,00,00,00,C4,
2395175,0000002C,false,Rx,0,8,1E,00,2F,52,00,21,00,80,
2400387,000000E0,false,Rx,0,8,00,00,00,0C,01,00,00,D9,
2405168,0000002C,false,Rx,0,8,1E,00,2F,52,10,BC,00,80,
2410389,000000E0,false,Rx,0,8,00,00,00,0C,02,00,00,FE,
2415179,0000002C,false,Rx,0,8,1E,00,2F,52,20,06,00,80,
2420382,000000E0,false,Rx,0,8,00,00,00,0C,03,00,00,E3,
2425172,0000002C,false,Rx,0,8,1E,00,2F,52,30,9B,00,80,
2430384,000000E0,false,Rx,0,8,00,00,00,0C,04,00,00,B0,
2435167,0000002C,false,Rx,0,8,1E,00,2F,52,40,6F,00,80,
2440379,000000E0,false,Rx,0,8,00,00,00,0C,05,00,00,AD,
2445161,0000002C,false,Rx,0,8,1E,00,2F,52,50,F2,00,80,
2450382,000000E0,false,Rx,0,8,00,00,00,0C,06,00,00,8A,
2455165,0000002C,false,Rx,0,8,1E,00,2F,52,60,48,00,80,
2460376,000000E0,false,Rx,0,8,00,00,00,0C,07,00,00,97,
2465167,0000002C,false,Rx,0,8,1E,00,2F,52,70,D5,00,80,
2470379,000000E0,false,Rx,0,8,00,00,00,0C,08,00,00,2C,
2475159,0000002C,false,Rx,0,8,1E,00,2F,52,80,BD,00,80,
2480371,000000E0,false,Rx,0,8,00,00,00,0C,09,00,00,31,
2485161,0000002C,false,Rx,0,8,1E,00,2F,52,90,20,00,80,
2490372,000000E0,false,Rx,0,8,00,00,00,0C,0A,00,00,16,
2495155,0000002C,false,Rx,0,8,1E,00,2F,52,A0,9A,00,80,
2500376,000000E0,false,Rx,0,8,00,00,00,0C,0B,00,00,0B,
2505157,0000002C,false,Rx,0,8,1E,00,2F,52,B0,07,00,80,
2510369,000000E0,false,Rx,0,8,00,00,00,0C,0C,00,00,58,
2515151,0000002C,false,Rx,0,8,1E,00,2F,52,C0,F3,00,80,
2520362,000000E0,false,Rx,0,8,00,00,00,0C,0D,00,00,45,
2525153,0000002C,false,Rx,0,8,1E,00,2F,52,D0,6E,00,80,
2530365,000000E0,false,Rx,0,8,00,00,00,0C,0E,00,00,62,
2535156,0000002C,false,Rx,0,8,1E,00,2F,52,E0,D4,00,80,
2540367,000000E0,false,Rx,0,8,00,00,00,0C,0F,00,00,7F,
2545157,0000002C,false,Rx,0,8,1E,00,2F,52,F0,49,00,80,
2550369,000000E0,false,Rx,0,8,00,00,00,0C,00,00,00,C4,
2555161,0000002C,false,Rx,0,8,1E,00,2F,52,00,21,00,80,
2560363,000000E0,false,Rx,0,8,00,00,00,0C,01,00,00,D9,
2565155,0000002C,false,Rx,0,8,1E,00,2F,52,10,BC,00,80,
2570367,000000E0,false,Rx,0,8,00,00,00,0C,02,00,00,FE,
2575158,0000002C,false,Rx,0,8,1E,00,2F,52,20,06,00,80,
2580359,000000E0,false,Rx,0,8,00,00,00,0C,03,00,00,E3,
2585140,0000002C,false,Rx,0,8,1E,00,2F,52,30,9B,00,80,
2590362,000000E0,false,Rx,0,8,00,00,00,0C,04,00,00,B0,
2595143,0000002C,false,Rx,0,8,1E,00,2F,52,40,6F,00,80,
2600354,000000E0,false,Rx,0,8,00,00,00,0C,05,00,00,AD,
2605134,0000002C,false,Rx,0,8,1E,00,2F,52,50,F2,00,80,
2610355,000000E0,false,Rx,0,8,00,00,00,0C,06,00,00,8A,
2615146,0000002C,false,Rx,0,8,1E,00,2F,52,60,48,00,80,
2620358,000000E0,false,Rx,0,8,00,00,00,0C,07,00,00,97,
2625139,0000002C,false,Rx,0,8,1E,00,2F,52,70,D5,00,80,
2630351,000000E0,false,Rx,0,8,00,00,00,0C,08,00,00,2C,
2635141,0000002C,false,Rx,0,8,1E,00,2F,52,80,BD,00,80,
2640352,000000E0,false,Rx,0,8,00,00,00,0C,09,00,00,31,
2645133,0000002C,false,Rx,0,8,1E,00,2F,52,90,20,00,80,
2650355,000000E0,false,Rx,0,8,00,00,00,0C,0A,00,00,16,
2655136,0000002C,false,Rx,0,8,1E,00,2F,52,A0,9A,00,80,
2660347,000000E0,false,Rx,0,8,00,00,00,0C,0B,00,00,0B,
2665138,0000002C,false,Rx,0,8,1E,00,2F,52,B0,07,00,80,
2670349,000000E0,false,Rx,0,8,00,00,00,0C,0C,00,00,58,
2675130,0000002C,false,Rx,0,8,1E,00,2F,52,C0,F3,00,80,
2680342,000000E0,false,Rx,0,8,00,00,00,0C,0D,00,00,45,
2685125,0000002C,false,Rx,0,8,1E,00,2F,52,D0,6E,00,80,
2690347,000000E0,false,Rx,0,8,00,00,00,0C,0E,00,00,62,
2695128,0000002C,false,Rx,0,8,1E,00,2F,52,E0,D4,00,80,
2700339,000000E0,false,Rx,0,8,00,00,00,0C,0F,00,00,7F,
2705130,0000002C,false,Rx,0,8,1E,00,2F,52,F0,49,00,80,
2710341,000000E0,false,Rx,0,8,00,00,00,0C,00,00,00,C4,
2715132,0000002C,false,Rx,0,8,1E,00,2F,52,00,21,00,80,
2720344,000000E0,false,Rx,0,8,00,00,00,0C,01,00,00,D9,
2725125,0000002C,false,Rx,0,8,1E,00,2F,52,10,BC,00,80,
2730347,000000E0,false,Rx,0,8,00,00,00,0C,02,00,00,FE,
2735128,0000002C,false,Rx,0,8,1E,00,2F,52,20,06,00,80,
2740339,000000E0,false,Rx,0,8,00,00,00,0C,03,00,00,E3,
2745120,0000002C,false,Rx,0,8,1E,00,2F,52,30,9B,00,80,
2750332,000000E0,false,Rx,0,8,00,00,00,0C,04,00,00,B0,
2755126,0000002C,false,Rx,0,8,1E,00,2F,52,40,6F,00,80,
2760337,000000E0,false,Rx,0,8,00,00,00,0C,05,00,00,AD,
2765119,0000002C,false,Rx,0,8,1E,00,2F,52,50,F2,00,80,
2770329,000000E0,false,Rx,0,8,00,00,00,0C,06,00,00,8A,
2775121,0000002C,false,Rx,0,8,1E,00,2F,52,60,48,00,80,
2780331,000000E0,false,Rx,0,8,00,00,00,0C,07,00,00,97,
2785113,0000002C,false,Rx,0,8,1E,00,2F,52,70,D5,00,80,
2790334,000000E0,false,Rx,0,8,00,00,00,0C,08,00,00,2C,
2795116,0000002C,false,Rx,0,8,1E,00,2F,52,80,BD,00,80,
2800327,000000E0,false,Rx,0,8,00,00,00,0C,09,00,00,31,
2805119,0000002C,false,Rx,0,8,1E,00,2F,52,90,20,00,80,
2810329,000000E0,false,Rx,0,8,00,00,00,0C,0A,00,00,16,
2815111,0000002C,false,Rx,0,8,1E,00,2F,52,A0,9A,00,80,
2820321,000000E0,false,Rx,0,8,00,00,00,0C,0B,00,00,0B,
2825113,0000002C,false,Rx,0,8,1E,00,2F,52,B0,07,00,80,
2830323,000000E0,false,Rx,0,8,00,00,00,0C,0C,00,00,58,
2835106,0000002C,false,Rx,0,8,1E,00,2F,52,C0,F3,00,80,
2840326,000000E0,false,Rx,0,8,00,00,00,0C,0D,00,00,45,
2845108,0000002C,false,Rx,0,8,1E,00,2F,52,D0,6E,00,80,
2850318,000000E0,false,Rx,0,8,00,00,00,0C,0E,00,00,62,
2855111,0000002C,false,Rx,0,8,1E,00,2F,52,E0,D4,00,80,
2860321,000000E0,false,Rx,0,8,00,00,00,0C,0F,00,00,7F,
2865103,0000002C,false,Rx,0,8,1E,00,2F,52,F0,49,00,80,
2870326,000000E0,false,Rx,0,8,00,00,00,0C,00,00,00,C4,
2875106,0000002C,false,Rx,0,8,1E,00,2F,52,00,21,00,80,
2880317,000000E0,false,Rx,0,8,00,00,00,0C,01,00,00,D9,
2885098,0000002C,false,Rx,0,8,1E,00,2F,52,10,BC,00,80,
2890319,000000E0,false,Rx,0,8,00,00,00,0C,02,00,00,FE,
2895111,0000002C,false,Rx,0,8,1E,00,2F,52,20,06,00,80,
2900312,000000E0,false,Rx,0,8,00,00,00,0C,03,00,00,E3,
2905093,0000002C,false,Rx,0,8,1E,00,2F,52,30,9B,00,80,
2910315,000000E0,false,Rx,0,8,00,00,00,0C,04,00,00,B0,
2915096,0000002C,false,Rx,0,8,1E,00,2F,52,40,6F,00,80,
2920307,000000E0,false,Rx,0,8,00,00,00,0C,05,00,00,AD,
2925088,0000002C,false,Rx,0,8,1E,00,2F,52,50,F2,00,80,
2930311,000000E0,false,Rx,0,8,00,00,00,0C,06,00,00,8A,
2935092,0000002C,false,Rx,0,8,1E,00,2F,52,60,48,00,80,
2940303,000000E0,false,Rx,0,8,00,00,00,0C,07,00,00,97,
2945095,0000002C,false,Rx,0,8,1E,00,2F,52,70,D5,00,80,
2950306,000000E0,false,Rx,0,8,00,00,00,0C,08,00,00,2C,
2955087,0000002C,false,Rx,0,8,1E,00,2F,52,80,BD,00,80,
2960299,000000E0,false,Rx,0,8,00,00,00,0C,09,00,00,31,
2965091,0000002C,false,Rx,0,8,1E,00,2F,52,90,20,00,80,
2970303,000000E0,false,Rx,0,8,00,00,00,0C,0A,00,00,16,
2975093,0000002C,false,Rx,0,8,1E,00,2F,52,A0,9A,00,80,
2980304,000000E0,false,Rx,0,8,00,00,00,0C,0B,00,00,0B,
2985087,0000002C,false,Rx,0,8,1E,00,2F,52,B0,07,00,80,
2990298,000000E0,false,Rx,0,8,00,00,00,0C,0C,00,00,58,
2995080,0000002C,false,Rx,0,8,1E,00,2F,52,C0,F3,00,80,
3000301,000000E0,false,Rx,0,8,00,00,00,0C,0D,00,00,45,
3005091,0000002C,false,Rx,0,8,1E,00,2F,52,D0,6E,00,80,
3010302,000000E0,false,Rx,0,8,00,00,00,0C,0E,00,00,62,
3015083,0000002C,false,Rx,0,8,1E,00,2F,52,E0,D4,00,80,
3020294,000000E0,false,Rx,0,8,00,00,00,0C,0F,00,00,7F,
3025085,0000002C,false,Rx,0,8,1E,00,2F,52,F0,49,00,80,
3030297,000000E0,false,Rx,0,8,00,00,00,0C,00,00,00,C4,
3035089,0000002C,false,Rx,0,8,1E,00,2F,52,00,21,00,80,
3040290,000000E0,false,Rx,0,8,00,00,00,0C,01,00,00,D9,
3045081,0000002C,false,Rx,0,8,1E,00,2F,52,10,BC,00,80,
3050292,000000E0,false,Rx,0,8,00,00,00,0C,02,00,00,FE,
3055083,0000002C,false,Rx,0,8,1E,00,2F,52,20,06,00,80,
3060294,000000E0,false,Rx,0,8,00,00,00,0C,03,00,00,E3,
3065076,0000002C,false,Rx,0,8,1E,00,2F,52,30,9B,00,80,
3070287,000000E0,false,Rx,0,8,00,00,00,0C,04,00,00,B0,
3075078,0000002C,false,Rx,0,8,1E,00,2F,52,40,6F,00,80,
3080289,000000E0,false,Rx,0,8,00,00,00,0C,05,00,00,AD,
3085070,0000002C,false,Rx,0,8,1E,00,2F,52,50,F2,00,80,
3090281,000000E0,false,Rx,0,8,00,00,00,0C,06,00,00,8A,
3095072,0000002C,false,Rx,0,8,1E,00,2F,52,60,48,00,80,
3100284,000000E0,false,Rx,0,8,00,00,00,0C,07,00,00,97,
3105066,0000002C,false,Rx,0,8,1E,00,2F,52,70,D5,00,80,
3110287,000000E0,false,Rx,0,8,00,00,00,0C,08,00,00,2C,
3115068,0000002C,false,Rx,0,8,1E,00,2F,52,80,BD,00,80,
3120279,000000E0,false,Rx,0,8,00,00,00,0C,09,00,00,31,
3125070,0000002C,false,Rx,0,8,1E,00,2F,52,90,20,00,80,
3130283,000000E0,false,Rx,0,8,00,00,00,0C,0A,00,00,16,
3135064,0000002C,false,Rx,0,8,1E,00,2F,52,A0,9A,00,80,
3140276,000000E0,false,Rx,0,8,00,00,00,0C,0B,00,00,0B,
3145067,0000002C,false,Rx,0,8,1E,00,2F,52,B0,07,00,80,
3150279,000000E0,false,Rx,0,8,00,00,00,0C,0C,00,00,58,
3155060,0000002C,false,Rx,0,8,1E,00,2F,52,C0,F3,00,80,
3160283,000000E0,false,Rx,0,8,00,00,00,0C,0D,00,00,45,
3165064,0000002C,false,Rx,0,8,1E,00,2F,52,D0,6E,00,80,
3170275,000000E0,false,Rx,0,8,00,00,00,0C,0E,00,00,62,
3175056,0000002C,false,Rx,0,8,1E,00,2F,52,E0,D4,00,80,
3180269,000000E0,false,Rx,0,8,00,00,00,0C,0F,00,00,7F,
3185060,0000002C,false,Rx,0,8,1E,00,2F,52,F0,49,00,80,
3190271,000000E0,false,Rx,0,8,00,00,00,0C,00,00,00,C4,
3195063,0000002C,false,Rx,0,8,1E,00,2F,52,00,21,00,80,
3200274,000000E0,false,Rx,0,8,00,00,00,0C,01,00,00,D9,
3205056,0000002C,false,Rx,0,8,1E,00,2F,52,10,BC,00,80,
3210267,000000E0,false,Rx,0,8,00,00,00,0C,02,00,00,FE,
3215058,0000002C,false,Rx,0,8,1E,00,2F,52,20,06,00,80,
3220269,000000E0,false,Rx,0,8,00,00,00,0C,03,00,00,E3,
3225050,0000002C,false,Rx,0,8,1E,00,2F,52,30,9B,00,80,
3230273,000000E0,false,Rx,0,8,00,00,00,0C,04,00,00,B0,
3235053,0000002C,false,Rx,0,8,1E,00,2F,52,40,6F,00,80,
3240265,000000E0,false,Rx,0,8,00,00,00,0C,05,00,00,AD,
3245045,0000002C,false,Rx,0,8,1E,00,2F,52,50,F2,00,80,
3250266,000000E0,false,Rx,0,8,00,00,00,0C,06,00,00,8A,
3255047,0000002C,false,Rx,0,8,1E,00,2F,52,60,48,00,80,
3260259,000000E0,false,Rx,0,8,00,00,00,0C,07,00,00,97,
3265050,0000002C,false,Rx,0,8,1E,00,2F,52,70,D5,00,80,
3270261,000000E0,false,Rx,0,8,00,00,00,0C,08,00,00,2C,
3275042,0000002C,false,Rx,0,8,1E,00,2F,52,80,BD,00,80,
3280254,000000E0,false,Rx,0,8,00,00,00,0C,09,00,00,31,
3285046,0000002C,false,Rx,0,8,1E,00,2F,52,90,20,00,80,
3290256,000000E0,false,Rx,0,8,00,00,00,0C,0A,00,00,16,
3295040,0000002C,false,Rx,0,8,1E,00,2F,52,A0,9A,00,80,
3300259,000000E0,false,Rx,0,8,00,00,00,0C,0B,00,00,0B,
3305041,0000002C,false,Rx,0,8,1E,00,2F,52,B0,07,00,80,
3310252,000000E0,false,Rx,0,8,00,00,00,0C,0C,00,00,58,
3315035,0000002C,false,Rx,0,8,1E,00,2F,52,C0,F3,00,80,
3320245,000000E0,false,Rx,0,8,00,00,00,0C,0D,00,00,45,
3325037,0000002C,false,Rx,0,8,1E,00,2F,52,D0,6E,00,80,
3330247,000000E0,false,Rx,0,8,00,00,00,0C,0E,00,00,62,
3335040,0000002C,false,Rx,0,8,1E,00,2F,52,E0,D4,00,80,
3340250,000000E0,false,Rx,0,8,00,00,00,0C,0F,00,00,7F,
3345032,0000002C,false,Rx,0,8,1E,00,2F,52,F0,49,00,80,
3350252,000000E0,false,Rx,0,8,00,00,00,0C,00,00,00,C4,
3355035,0000002C,false,Rx,0,8,1E,00,2F,52,00,21,00,80,
3360245,000000E0,false,Rx,0,8,00,00,00,0C,01,00,00,D9,
3365027,0000002C,false,Rx,0,8,1E,00,2F,52,10,BC,00,80,
3370247,000000E0,false,Rx,0,8,00,00,00,0C,02,00,00,FE,
3375030,0000002C,false,Rx,0,8,1E,00,2F,52,20,06,00,80,
3380250,000000E0,false,Rx,0,8,00,00,00,0C,03,00,00,E3,
3385032,0000002C,false,Rx,0,8,1E,00,2F,52,30,9B,00,80,
3390242,000000E0,false,Rx,0,8,00,00,00,0C,04,00,00,B0,
3395034,0000002C,false,Rx,0,8,1E,00,2F,52,40,6F,00,80,
3400236,000000E0,false,Rx,0,8,00,00,00,0C,05,00,00,AD,
3405017,0000002C,false,Rx,0,8,1E,00,2F,52,50,F2,00,80,
3410238,000000E0,false,Rx,0,8,00,00,00,0C,06,00,00,8A,
3415030,0000002C,false,Rx,0,8,1E,00,2F,52,60,48,00,80,
3420231,000000E0,false,Rx,0,8,00,00,00,0C,07,00,00,97,
3425022,0000002C,false,Rx,0,8,1E,00,2F,52,70,D5,00,80,
3430235,000000E0,false,Rx,0,8,00,00,00,0C,08,00,00,2C,
3435027,0000002C,false,Rx,0,8,1E,00,2F,52,80,BD,00,80,
3440228,000000E0,false,Rx,0,8,00,00,00,0C,09,00,00,31,
3445020,0000002C,false,Rx,0,8,1E,00,2F,52,90,20,00,80,
3450231,000000E0,false,Rx,0,8,00,00,00,0C,0A,00,00,16,
3455022,0000002C,false,Rx,0,8,1E,00,2F,52,A0,9A,00,80,
3460233,000000E0,false,Rx,0,8,00,00,00,0C,0B,00,00,0B,
3465014,0000002C,false,Rx,0,8,1E,00,2F,52,B0,07,00,80,
3470235,000000E0,false,Rx,0,8,00,00,00,0C,0C,00,00,58,
3475017,0000002C,false,Rx,0,8,1E,00,2F,52,C0,F3,00,80,
3480229,000000E0,false,Rx,0,8,00,00,00,0C,0D,00,00,45,
3485012,0000002C,false,Rx,0,8,1E,00,2F,52,D0,6E,00,80,
3490233,000000E0,false,Rx,0,8,00,00,00,0C,0E,00,00,62,
3495015,0000002C,false,Rx,0,8,1E,00,2F,52,E0,D4,00,80,
3500228,000000E0,false,Rx,0,8,00,00,00,0C,0F,00,00,7F,
3505009,0000002C,false,Rx,0,8,1E,00,2F,52,F0,49,00,80,
3510230,000000E0,false,Rx,0,8,00,00,00,0C,00,00,00,C4,
3515012,0000002C,false,Rx,0,8,1E,00,2F,52,00,21,00,80,
3520223,000000E0,false,Rx,0,8,00,00,00,0C,01,00,00,D9,
3525003,0000002C,false,Rx,0,8,1E,00,2F,52,10,BC,00,80,
3530225,000000E0,false,Rx,0,8,00,00,00,0C,02,00,00,FE,
3535007,0000002C,false,Rx,0,8,1E,00,2F,52,20,06,00,80,
3540220,000000E0,false,Rx,0,8,00,00,00,0C,03,00,00,E3,
3545011,0000002C,false,Rx,0,8,1E,00,2F,52,30,9B,00,80,
3550213,000000E0,false,Rx,0,8,00,00,00,0C,04,00,00,B0,
3555003,0000002C,false,Rx,0,8,1E,00,2F,52,40,6F,00,80,
3560215,000000E0,false,Rx,0,8,00,00,00,0C,05,00,00,AD,
3564996,0000002C,false,Rx,0,8,1E,00,2F,52,50,F2,00,80,
3570208,000000E0,false,Rx,0,8,00,00,00,0C,06,00,00,8A,
3575000,0000002C,false,Rx,0,8,1E,00,2F,52,60,48,00,80,
3580213,000000E0,false,Rx,0,8,00,00,00,0C,07,00,00,97,
3584995,0000002C,false,Rx,0,8,1E,00,2F,52,70,D5,00,80,
3590218,000000E0,false,Rx,0,8,00,00,00,0C,08,00,00,2C,
3594999,0000002C,false,Rx,0,8,1E,00,2F,52,80,BD,00,80,
3600211,000000E0,false,Rx,0,8,00,00,00,0C,09,00,00,31,
3604992,0000002C,false,Rx,0,8,1E,00,2F,52,90,20,00,80,
3610213,000000E0,false,Rx,0,8,00,00,00,0C,0A,00,00,16,
3614995,0000002C,false,Rx,0,8,1E,00,2F,52,A0,9A,00,80,
3620208,000000E0,false,Rx,0,8,00,00,00,0C,1B,00,00,C6,
3624998,0000002C,false,Rx,0,8,1E,00,2F,40,B0,41,01,00,
3630200,000000E0,false,Rx,0,8,00,00,00,0C,1C,00,00,95,
3634991,0000002C,false,Rx,0,8,1E,00,2F,40,C0,B5,01,00,
3640203,000000E0,false,Rx,0,8,00,00,00,0C,1D,00,00,88,
3644995,0000002C,false,Rx,0,8,1E,00,2F,40,D0,28,01,00,
3650208,000000E0,false,Rx,0,8,00,00,00,0C,1E,00,00,AF,
3654990,0000002C,false,Rx,0,8,1E,00,2F,40,E0,92,01,00,
3660203,000000E0,false,Rx,0,8,00,00,00,0C,1F,00,00,B2,
3664994,0000002C,false,Rx,0,8,1E,00,2F,40,F0,0F,01,00,
3670205,000000E0,false,Rx,0,8,00,00,00,0C,10,00,00,09,
3674998,0000002C,false,Rx,0,8,1E,00,2F,40,00,67,01,00,
3680199,000000E0,false,Rx,0,8,00,00,00,0C,11,00,00,14,
3684991,0000002C,false,Rx,0,8,1E,00,2F,40,10,FA,01,00,
3690202,000000E0,false,Rx,0,8,00,00,00,0C,12,00,00,33,
3694984,0000002C,false,Rx,0,8,1E,00,2F,40,20,40,01,00,
3700204,000000E0,false,Rx,0,8,00,00,00,0C,13,00,00,2E,
3704986,0000002C,false,Rx,0,8,1E,00,2F,40,30,DD,01,00,
3710198,000000E0,false,Rx,0,8,00,00,00,0C,14,00,00,7D,
3714980,0000002C,false,Rx,0,8,1E,00,2F,40,40,29,01,00,
3720201,000000E0,false,Rx,0,8,00,00,00,0C,15,00,00,60,
3724981,0000002C,false,Rx,0,8,1E,00,2F,40,50,B4,01,00,
3730195,000000E0,false,Rx,0,8,00,00,00,0C,16,00,00,47,
3734976,0000002C,false,Rx,0,8,1E,00,2F,40,60,0E,01,00,
3740187,000000E0,false,Rx,0,8,00,00,00,0C,17,00,00,5A,
3744969,0000002C,false,Rx,0,8,1E,00,2F,40,70,93,01,00,
3750189,000000E0,false,Rx,0,8,00,00,00,0C,18,00,00,E1,
3754980,0000002C,false,Rx,0,8,1E,00,2F,40,80,FB,01,00,
3760183,000000E0,false,Rx,0,8,00,00,00,0C,19,00,00,FC,
3764974,0000002C,false,Rx,0,8,1E,00,2F,40,90,66,01,00,
3770185,000000E0,false,Rx,0,8,00,00,00,0C,1A,00,00,DB,
3774966,0000002C,false,Rx,0,8,1E,00,2F,40,A0,DC,01,00,
3780180,000000E0,false,Rx,0,8,00,00,00,0C,1B,00,00,C6,
3784971,0000002C,false,Rx,0,8,1E,00,2F,40,B0,41,01,00,
3790182,000000E0,false,Rx,0,8,00,00,00,0C,1C,00,00,95,
3794973,0000002C,false,Rx,0,8,1E,00,2F,40,C0,B5,01,00,
3800184,000000E0,false,Rx,0,8,00,00,00,0C,1D,00,00,88,
3804977,0000002C,false,Rx,0,8,1E,00,2F,40,D0,28,01,00,
3810187,000000E0,false,Rx,0,8,00,00,00,0C,1E,00,00,AF,
3814970,0000002C,false,Rx,0,8,1E,00,2F,40,E0,92,01,00,
3820180,000000E0,false,Rx,0,8,00,00,00,0C,1F,00,00,B2,
3824972,0000002C,false,Rx,0,8,1E,00,2F,40,F0,0F,01,00,
3830182,000000E0,false,Rx,0,8,00,00,00,0C,10,00,00,09,
3834965,0000002C,false,Rx,0,8,1E,00,2F,40,00,67,01,00,
3840175,000000E0,false,Rx,0,8,00,00,00,0C,11,00,00,14,
3844967,0000002C,false,Rx,0,8,1E,00,2F,40,10,FA,01,00,
3850168,000000E0,false,Rx,0,8,00,00,00,0C,12,00,00,33,
3854960,0000002C,false,Rx,0,8,1E,00,2F,40,20,40,01,00,
3860180,000000E0,false,Rx,0,8,00,00,00,0C,13,00,00,2E,
3864962,0000002C,false,Rx,0,8,1E,00,2F,40,30,DD,01,00,
3870173,000000E0,false,Rx,0,8,00,00,00,0C,14,00,00,7D,
3874957,0000002C,false,Rx,0,8,1E,00,2F,40,40,29,01,00,
3880168,000000E0,false,Rx,0,8,00,00,00,0C,15,00,00,60,
3884950,0000002C,false,Rx,0,8,1E,00,2F,40,50,B4,01,00,
3890170,000000E0,false,Rx,0,8,00,00,00,0C,16,00,00,47,
3894952,0000002C,false,Rx,0,8,1E,00,2F,40,60,0E,01,00,
3900162,000000E0,false,Rx,0,8,00,00,00,0C,17,00,00,5A,
3904945,0000002C,false,Rx,0,8,1E,00,2F,40,70,93,01,00,
3910165,000000E0,false,Rx,0,8,00,00,00,0C,18,00,00,E1,
3914957,0000002C,false,Rx,0,8,1E,00,2F,40,80,FB,01,00,
3920168,000000E0,false,Rx,0,8,00,00,00,0C,19,00,00,FC,
3924953,0000002C,false,Rx,0,8,1E,00,2F,40,90,66,01,00,
3930164,000000E0,false,Rx,0,8,00,00,00,0C,1A,00,00,DB,
3934945,0000002C,false,Rx,0,8,1E,00,2F,40,A0,DC,01,00,
3940166,000000E0,false,Rx,0,8,00,00,00,0C,1B,00,00,C6,
3944947,0000002C,false,Rx,0,8,1E,00,2F,40,B0,41,01,00,
3950160,000000E0,false,Rx,0,8,00,00,00,0C,1C,00,00,95,
3954950,0000002C,false,Rx,0,8,1E,00,2F,40,C0,B5,01,00,
3960154,000000E0,false,Rx,0,8,00,00,00,0C,1D,00,00,88,
3964945,0000002C,false,Rx,0,8,1E,00,2F,40,D0,28,01,00,
3970166,000000E0,false,Rx,0,8,00,00,00,0C,1E,00,00,AF,
3974947,0000002C,false,Rx,0,8,1E,00,2F,40,E0,92,01,00,
3980158,000000E0,false,Rx,0,8,00,00,00,0C,1F,00,00,B2,
3984949,0000002C,false,Rx,0,8,1E,00,2F,40,F0,0F,01,00,
3990161,000000E0,false,Rx,0,8,00,00,00,0C,10,00,00,09,
3994943,0000002C,false,Rx,0,8,1E,00,2F,40,00,67,01,00,
4000154,000000E0,false,Rx,0,8,00,00,00,0C,11,00,00,14,
4004945,0000002C,false,Rx,0,8,1E,00,2F,40,10,FA,01,00,
4010146,000000E0,false,Rx,0,8,00,00,00,0C,12,00,00,33,
4014937,0000002C,false,Rx,0,8,1E,00,2F,40,20,40,01,00,
4020148,000000E0,false,Rx,0,8,00,00,00,0C,13,00,00,2E,
4024930,0000002C,false,Rx,0,8,1E,00,2F,40,30,DD,01,00,
4030151,000000E0,false,Rx,0,8,00,00,00,0C,14,00,00,7D,
4034932,0000002C,false,Rx,0,8,1E,00,2F,40,40,29,01,00,
4040145,000000E0,false,Rx,0,8,00,00,00,0C,15,00,00,60,
4044925,0000002C,false,Rx,0,8,1E,00,2F,40,50,B4,01,00,
4050147,000000E0,false,Rx,0,8,00,00,00,0C,16,00,00,47,
4054937,0000002C,false,Rx,0,8,1E,00,2F,40,60,0E,01,00,
4060140,000000E0,false,Rx,0,8,00,00,00,0C,17,00,00,5A,
4064922,0000002C,false,Rx,0,8,1E,00,2F,40,70,93,01,00,
4070144,000000E0,false,Rx,0,8,00,00,00,0C,18,00,00,E1,
4074925,0000002C,false,Rx,0,8,1E,00,2F,40,80,FB,01,00,
4080146,000000E0,false,Rx,0,8,00,00,00,0C,19,00,00,FC,
4084927,0000002C,false,Rx,0,8,1E,00,2F,40,90,66,01,00,
4090138,000000E0,false,Rx,0,8,00,00,00,0C,1A,00,00,DB,
4094920,0000002C,false,Rx,0,8,1E,00,2F,40,A0,DC,01,00,
4100141,000000E0,false,Rx,0,8,00,00,00,0C,1B,00,00,C6,
4104922,0000002C,false,Rx,0,8,1E,00,2F,40,B0,41,01,00,
4110133,000000E0,false,Rx,0,8,00,00,00,0C,1C,00,00,95,
4114925,0000002C,false,Rx,0,8,1E,00,2F,40,C0,B5,01,00,
4120136,000000E0,false,Rx,0,8,00,00,00,0C,1D,00,00,88,
4124927,0000002C,false,Rx,0,8,1E,00,2F,40,D0,28,01,00,
4130139,000000E0,false,Rx,0,8,00,00,00,0C,1E,00,00,AF,
4134930,0000002C,false,Rx,0,8,1E,00,2F,40,E0,92,01,00,
4140131,000000E0,false,Rx,0,8,00,00,00,0C,1F,00,00,B2,
4144922,0000002C,false,Rx,0,8,1E,00,2F,40,F0,0F,01,00,
4150135,000000E0,false,Rx,0,8,00,00,00,0C,10,00,00,09,
4154927,0000002C,false,Rx,0,8,1E,00,2F,40,00,67,01,00,
4160129,000000E0,false,Rx,0,8,00,00,00,0C,11,00,00,14,
4164920,0000002C,false,Rx,0,8,1E,00,2F,40,10,FA,01,00,
4170131,000000E0,false,Rx,0,8,00,00,00,0C,12,00,00,33,
4174915,0000002C,false,Rx,0,8,1E,00,2F,40,20,40,01,00,
4180126,000000E0,false,Rx,0,8,00,00,00,0C,13,00,00,2E,
4184917,0000002C,false,Rx,0,8,1E,00,2F,40,30,DD,01,00,
4190120,000000E0,false,Rx,0,8,00,00,00,0C,14,00,00,7D,
4194912,0000002C,false,Rx,0,8,1E,00,2F,40,40,29,01,00,
4200125,000000E0,false,Rx,0,8,00,00,00,0C,15,00,00,60,
4204906,0000002C,false,Rx,0,8,1E,00,2F,40,50,B4,01,00,
4210128,000000E0,false,Rx,0,8,00,00,00,0C,16,00,00,47,
4214909,0000002C,false,Rx,0,8,1E,00,2F,40,60,0E,01,00,
4220120,000000E0,false,Rx,0,8,00,00,00,0C,17,00,00,5A,
4224902,0000002C,false,Rx,0,8,1E,00,2F,40,70,93,01,00,
4230114,000000E0,false,Rx,0,8,00,00,00,0C,18,00,00,E1,
4234906,0000002C,false,Rx,0,8,1E,00,2F,40,80,FB,01,00,
4240119,000000E0,false,Rx,0,8,00,00,00,0C,19,00,00,FC,
4244910,0000002C,false,Rx,0,8,1E,00,2F,40,90,66,01,00,
4250112,000000E0,false,Rx,0,8,00,00,00,0C,1A,00,00,DB,
4254902,0000002C,false,Rx,0,8,1E,00,2F,40,A0,DC,01,00,
4260115,000000E0,false,Rx,0,8,00,00,00,0C,1B,00,00,C6,
4264905,0000002C,false,Rx,0,8,1E,00,2F,40,B0,41,01,00,
4270107,000000E0,false,Rx,0,8,00,00,00,0C,1C,00,00,95,
4274899,0000002C,false,Rx,0,8,1E,00,2F,40,C0,B5,01,00,
4280110,000000E0,false,Rx,0,8,00,00,00,0C,1D,00,00,88,
4284902,0000002C,false,Rx,0,8,1E,00,2F,40,D0,28,01,00,
4290113,000000E0,false,Rx,0,8,00,00,00,0C,1E,00,00,AF,
4294894,0000002C,false,Rx,0,8,1E,00,2F,40,E0,92,01,00,
4300115,000000E0,false,Rx,0,8,00,00,00,0C,1F,00,00,B2,
4304896,0000002C,false,Rx,0,8,1E,00,2F,40,F0,0F,01,00,
4310107,000000E0,false,Rx,0,8,00,00,00,0C,10,00,00,09,
4314898,0000002C,false,Rx,0,8,1E,00,2F,40,00,67,01,00,
4320100,000000E0,false,Rx,0,8,00,00,00,0C,11,00,00,14,
4324891,0000002C,false,Rx,0,8,1E,00,2F,40,10,FA,01,00,
4330102,000000E0,false,Rx,0,8,00,00,00,0C,12,00,00,33,
4334895,0000002C,false,Rx,0,8,1E,00,2F,40,20,40,01,00,
4340105,000000E0,false,Rx,0,8,00,00,00,0C,13,00,00,2E,
4344888,0000002C,false,Rx,0,8,1E,00,2F,40,30,DD,01,00,
4350098,000000E0,false,Rx,0,8,00,00,00,0C,14,00,00,7D,
4354890,0000002C,false,Rx,0,8,1E,00,2F,40,40,29,01,00,
4360100,000000E0,false,Rx,0,8,00,00,00,0C,15,00,00,60,
4364882,0000002C,false,Rx,0,8,1E,00,2F,40,50,B4,01,00,
4370103,000000E0,false,Rx,0,8,00,00,00,0C,16,00,00,47,
4374885,0000002C,false,Rx,0,8,1E,00,2F,40,60,0E,01,00,
4380095,000000E0,false,Rx,0,8,00,00,00,0C,17,00,00,5A,
4384878,0000002C,false,Rx,0,8,1E,00,2F,40,70,93,01,00,
4390098,000000E0,false,Rx,0,8,00,00,00,0C,18,00,00,E1,
4394890,0000002C,false,Rx,0,8,1E,00,2F,40,80,FB,01,00,
4400100,000000E0,false,Rx,0,8,00,00,00,0C,19,00,00,FC,
4404892,0000002C,false,Rx,0,8,1E,00,2F,40,90,66,01,00,
4410093,000000E0,false,Rx,0,8,00,00,00,0C,1A,00,00,DB,
4414875,0000002C,false,Rx,0,8,1E,00,2F,40,A0,DC,01,00,
4420085,000000E0,false,Rx,0,8,00,00,00,0C,1B,00,00,C6,
4424878,0000002C,false,Rx,0,8,1E,00,2F,40,B0,41,01,00,
4430088,000000E0,false,Rx,0,8,00,00,00,0C,1C,00,00,95,
4434873,0000002C,false,Rx,0,8,1E,00,2F,40,C0,B5,01,00,
4440083,000000E0,false,Rx,0,8,00,00,00,0C,1D,00,00,88,
4444885,0000002C,false,Rx,0,8,1E,00,2F,40,D0,28,01,00,
4450086,000000E0,false,Rx,0,8,00,00,00,0C,1E,00,00,AF,
4454878,0000002C,false,Rx,0,8,1E,00,2F,40,E0,92,01,00,
4460091,000000E0,false,Rx,0,8,00,00,00,0C,1F,00,00,B2,
4464872,0000002C,false,Rx,0,8,1E,00,2F,40,F0,0F,01,00,
4470085,000000E0,false,Rx,0,8,00,00,00,0C,10,00,00,09,
4474875,0000002C,false,Rx,0,8,1E,00,2F,40,00,67,01,00,
4480076,000000E0,false,Rx,0,8,00,00,00,0C,11,00,00,14,
4484868,0000002C,false,Rx,0,8,1E,00,2F,40,10,FA,01,00,
4490080,000000E0,false,Rx,0,8,00,00,00,0C,12,00,00,33,
4494870,0000002C,false,Rx,0,8,1E,00,2F,40,20,40,01,00,
4500081,000000E0,false,Rx,0,8,00,00,00,0C,13,00,00,2E,
4504862,0000002C,false,Rx,0,8,1E,00,2F,40,30,DD,01,00,
4510075,000000E0,false,Rx,0,8,00,00,00,0C,14,00,00,7D,
4514865,0000002C,false,Rx,0,8,1E,00,2F,40,40,29,01,00,
4520077,000000E0,false,Rx,0,8,00,00,00,0C,15,00,00,60,
4524858,0000002C,false,Rx,0,8,1E,00,2F,40,50,B4,01,00,
4530079,000000E0,false,Rx,0,8,00,00,00,0C,16,00,00,47,
4534860,0000002C,false,Rx,0,8,1E,00,2F,40,60,0E,01,00,
4540071,000000E0,false,Rx,0,8,00,00,00,0C,17,00,00,5A,
4544852,0000002C,false,Rx,0,8,1E,00,2F,40,70,93,01,00,
4550065,000000E0,false,Rx,0,8,00,00,00,0C,28,00,00,AB,
4554855,0000002C,false,Rx,0,8,1E,00,2F,41,80,77,02,00,
4560076,000000E0,false,Rx,0,8,00,00,00,0C,29,00,00,B6,
4564857,0000002C,false,Rx,0,8,1E,00,2F,41,90,EA,02,00,
4570058,000000E0,false,Rx,0,8,00,00,00,0C,2A,00,00,91,
4574850,0000002C,false,Rx,0,8,1E,00,2F,41,A0,50,02,00,
4580061,000000E0,false,Rx,0,8,00,00,00,0C,2B,00,00,8C,
4584852,0000002C,false,Rx,0,8,1E,00,2F,41,B0,CD,02,00,
4590065,000000E0,false,Rx,0,8,00,00,00,0C,2C,00,00,DF,
4594856,0000002C,false,Rx,0,8,1E,00,2F,41,C0,39,02,00,
4600057,000000E0,false,Rx,0,8,00,00,00,0C,2D,00,00,C2,
4604847,0000002C,false,Rx,0,8,1E,00,2F,41,D0,A4,02,00,
4610060,000000E0,false,Rx,0,8,00,00,00,0C,2E,00,00,E5,
4614850,0000002C,false,Rx,0,8,1E,00,2F,41,E0,1E,02,00,
4620061,000000E0,false,Rx,0,8,00,00,00,0C,2F,00,00,F8,
4624852,0000002C,false,Rx,0,8,1E,00,2F,41,F0,83,02,00,
4630055,000000E0,false,Rx,0,8,00,00,00,0C,20,00,00,43,
4634845,0000002C,false,Rx,0,8,1E,00,2F,41,00,FB,02,00,
4640056,000000E0,false,Rx,0,8,00,00,00,0C,21,00,00,5E,
4644847,0000002C,false,Rx,0,8,1E,00,2F,41,10,76,02,00,
4650048,000000E0,false,Rx,0,8,00,00,00,0C,22,00,00,79,
4654839,0000002C,false,Rx,0,8,1E,00,2F,41,20,CC,02,00,
4660050,000000E0,false,Rx,0,8,00,00,00,0C,23,00,00,64,
4664842,0000002C,false,Rx,0,8,1E,00,2F,41,30,51,02,00,
4670065,000000E0,false,Rx,0,8,00,00,00,0C,24,00,00,37,
4674847,0000002C,false,Rx,0,8,1E,00,2F,41,40,A5,02,00,
4680050,000000E0,false,Rx,0,8,00,00,00,0C,25,00,00,2A,
4684834,0000002C,false,Rx,0,8,1E,00,2F,41,50,38,02,00,
4690045,000000E0,false,Rx,0,8,00,00,00,0C,26,00,00,0D,
4694837,0000002C,false,Rx,0,8,1E,00,2F,41,60,82,02,00,
4700040,000000E0,false,Rx,0,8,00,00,00,0C,27,00,00,10,
4704831,0000002C,false,Rx,0,8,1E,00,2F,41,70,1F,02,00,
4710045,000000E0,false,Rx,0,8,00,00,00,0C,28,00,00,AB,
4714827,0000002C,false,Rx,0,8,1E,00,2F,41,80,77,02,00,
4720049,000000E0,false,Rx,0,8,00,00,00,0C,29,00,00,B6,
4724830,0000002C,false,Rx,0,8,1E,00,2F,41,90,EA,02,00,
4730042,000000E0,false,Rx,0,8,00,00,00,0C,2A,00,00,91,
4734832,0000002C,false,Rx,0,8,1E,00,2F,41,A0,50,02,00,
4740045,000000E0,false,Rx,0,8,00,00,00,0C,2B,00,00,8C,
4744826,0000002C,false,Rx,0,8,1E,00,2F,41,B0,CD,02,00,
4750037,000000E0,false,Rx,0,8,00,00,00,0C,2C,00,00,DF,
4754829,0000002C,false,Rx,0,8,1E,00,2F,41,C0,39,02,00,
4760040,000000E0,false,Rx,0,8,00,00,00,0C,2D,00,00,C2,
4764822,0000002C,false,Rx,0,8,1E,00,2F,41,D0,A4,02,00,
4770033,000000E0,false,Rx,0,8,00,00,00,0C,2E,00,00,E5,
4774824,0000002C,false,Rx,0,8,1E,00,2F,41,E0,1E,02,00,
4780045,000000E0,false,Rx,0,8,00,00,00,0C,2F,00,00,F8,
4784838,0000002C,false,Rx,0,8,1E,00,2F,41,F0,83,02,00,
4790030,000000E0,false,Rx,0,8,00,00,00,0C,20,00,00,43,
4794823,0000002C,false,Rx,0,8,1E,00,2F,41,00,FB,02,00,
4800034,000000E0,false,Rx,0,8,00,00,00,0C,21,00,00,5E,
4804814,0000002C,false,Rx,0,8,1E,00,2F,41,10,76,02,00,
4810025,000000E0,false,Rx,0,8,00,00,00,0C,22,00,00,79,
4814818,0000002C,false,Rx,0,8,1E,00,2F,41,20,CC,02,00,
4820030,000000E0,false,Rx,0,8,00,00,00,0C,23,00,00,64,
4824811,0000002C,false,Rx,0,8,1E,00,2F,41,30,51,02,00,
4830033,000000E0,false,Rx,0,8,00,00,00,0C,24,00,00,37,
4834824,0000002C,false,Rx,0,8,1E,00,2F,41,40,A5,02,00,
4840025,000000E0,false,Rx,0,8,00,00,00,0C,25,00,00,2A,
4844817,0000002C,false,Rx,0,8,1E,00,2F,41,50,38,02,00,
4850029,000000E0,false,Rx,0,8,00,00,00,0C,26,00,00,0D,
4854819,0000002C,false,Rx,0,8,1E,00,2F,41,60,82,02,00,
4860021,000000E0,false,Rx,0,8,00,00,00,0C,27,00,00,10,
4864813,0000002C,false,Rx,0,8,1E,00,2F,41,70,1F,02,00,
4870024,000000E0,false,Rx,0,8,00,00,00,0C,28,00,00,AB,
4874805,0000002C,false,Rx,0,8,1E,00,2F,41,80,77,02,00,
4880025,000000E0,false,Rx,0,8,00,00,00,0C,29,00,00,B6,
4884809,0000002C,false,Rx,0,8,1E,00,2F,41,90,EA,02,00,
4890019,000000E0,false,Rx,0,8,00,00,00,0C,2A,00,00,91,
4894800,0000002C,false,Rx,0,8,1E,00,2F,41,A0,50,02,00,
4900020,000000E0,false,Rx,0,8,00,00,00,0C,2B,00,00,8C,
4904802,0000002C,false,Rx,0,8,1E,00,2F,41,B0,CD,02,00,
4910014,000000E0,false,Rx,0,8,00,00,00,0C,2C,00,00,DF,
4914806,0000002C,false,Rx,0,8,1E,00,2F,41,C0,39,02,00,
4920016,000000E0,false,Rx,0,8,00,00,00,0C,2D,00,00,C2,
4924801,0000002C,false,Rx,0,8,1E,00,2F,41,D0,A4,02,00,
4930011,000000E0,false,Rx,0,8,00,00,00,0C,2E,00,00,E5,
4934804,0000002C,false,Rx,0,8,1E,00,2F,41,E0,1E,02,00,
4940024,000000E0,false,Rx,0,8,00,00,00,0C,2F,00,00,F8,
4944805,0000002C,false,Rx,0,8,1E,00,2F,41,F0,83,02,00,
4950015,000000E0,false,Rx,0,8,00,00,00,0C,20,00,00,43,
4954797,0000002C,false,Rx,0,8,1E,00,2F,41,00,FB,02,00,
4960007,000000E0,false,Rx,0,8,00,00,00,0C,21,00,00,5E,
4964791,0000002C,false,Rx,0,8,1E,00,2F,41,10,76,02,00,
4970011,000000E0,false,Rx,0,8,00,00,00,0C,22,00,00,79,
4974793,0000002C,false,Rx,0,8,1E,00,2F,41,20,CC,02,00,
4980004,000000E0,false,Rx,0,8,00,00,00,0C,23,00,00,64,
4984796,0000002C,false,Rx,0,8,1E,00,2F,41,30,51,02,00,
4990007,000000E0,false,Rx,0,8,00,00,00,0C,24,00,00,37,
4994798,0000002C,false,Rx,0,8,1E,00,2F,41,40,A5,02,00,
5000000,000000E0,false,Rx,0,8,00,00,00,0C,25,00,00,2A,
5004790,0000002C,false,Rx,0,8,1E,00,2F,41,50,38,02,00,
5010001,000000E0,false,Rx,0,8,00,00,00,0C,26,00,00,0D,
5014793,0000002C,false,Rx,0,8,1E,00,2F,41,60,82,02,00,
5019995,000000E0,false,Rx,0,8,00,00,00,0C,27,00,00,10,
5024785,0000002C,false,Rx,0,8,1E,00,2F,41,70,1F,02,00,
5029996,000000E0,false,Rx,0,8,00,00,00,0C,28,00,00,AB,
5034787,0000002C,false,Rx,0,8,1E,00,2F,41,80,77,02,00,
5040000,000000E0,false,Rx,0,8,00,00,00,0C,29,00,00,B6,
5044780,0000002C,false,Rx,0,8,1E,00,2F,41,90,EA,02,00,
5049991,000000E0,false,Rx,0,8,00,00,00,0C,2A,00,00,91,
5054783,0000002C,false,Rx,0,8,1E,00,2F,41,A0,50,02,00,
5059995,000000E0,false,Rx,0,8,00,00,00,0C,2B,00,00,8C,
5064776,0000002C,false,Rx,0,8,1E,00,2F,41,B0,CD,02,00,
5069997,000000E0,false,Rx,0,8,00,00,00,0C,2C,00,00,DF,
5074789,0000002C,false,Rx,0,8,1E,00,2F,41,C0,39,02,00,
5079990,000000E0,false,Rx,0,8,00,00,00,0C,2D,00,00,C2,
5084781,0000002C,false,Rx,0,8,1E,00,2F,41,D0,A4,02,00,
5089992,000000E0,false,Rx,0,8,00,00,00,0C,2E,00,00,E5,
5094783,0000002C,false,Rx,0,8,1E,00,2F,41,E0,1E,02,00,
5100005,000000E0,false,Rx,0,8,00,00,00,0C,2F,00,00,F8,
5104795,0000002C,false,Rx,0,8,1E,00,2F,41,F0,83,02,00,
5109987,000000E0,false,Rx,0,8,00,00,00,0C,20,00,00,43,
5114779,0000002C,false,Rx,0,8,1E,00,2F,41,00,FB,02,00,
5119990,000000E0,false,Rx,0,8,00,00,00,0C,21,00,00,5E,
5124771,0000002C,false,Rx,0,8,1E,00,2F,41,10,76,02,00,
5129982,000000E0,false,Rx,0,8,00,00,00,0C,22,00,00,79,
5134774,0000002C,false,Rx,0,8,1E,00,2F,41,20,CC,02,00,
5139975,000000E0,false,Rx,0,8,00,00,00,0C,23,00,00,64,
5144767,0000002C,false,Rx,0,8,1E,00,2F,41,30,51,02,00,
5149990,000000E0,false,Rx,0,8,00,00,00,0C,24,00,00,37,
5154770,0000002C,false,Rx,0,8,1E,00,2F,41,40,A5,02,00,
5159982,000000E0,false,Rx,0,8,00,00,00,0C,25,00,00,2A,
5164763,0000002C,false,Rx,0,8,1E,00,2F,41,50,38,02,00,
5169975,000000E0,false,Rx,0,8,00,00,00,0C,26,00,00,0D,
5174769,0000002C,false,Rx,0,8,1E,00,2F,41,60,82,02,00,
5179980,000000E0,false,Rx,0,8,00,00,00,0C,27,00,00,10,
5184761,0000002C,false,Rx,0,8,1E,00,2F,41,70,1F,02,00,
5189972,000000E0,false,Rx,0,8,00,00,00,0C,28,00,00,AB,
5194763,0000002C,false,Rx,0,8,1E,00,2F,41,80,77,02,00,
5199974,000000E0,false,Rx,0,8,00,00,00,0C,29,00,00,B6,
5204755,0000002C,false,Rx,0,8,1E,00,2F,41,90,EA,02,00,
5209976,000000E0,false,Rx,0,8,00,00,00,0C,2A,00,00,91,
5214767,0000002C,false,Rx,0,8,1E,00,2F,41,A0,50,02,00,
5219968,000000E0,false,Rx,0,8,00,00,00,0C,2B,00,00,8C,
5224759,0000002C,false,Rx,0,8,1E,00,2F,41,B0,CD,02,00,
5229970,000000E0,false,Rx,0,8,00,00,00,0C,2C,00,00,DF,
5234764,0000002C,false,Rx,0,8,1E,00,2F,41,C0,39,02,00,
5239965,000000E0,false,Rx,0,8,00,00,00,0C,2D,00,00,C2,
5244756,0000002C,false,Rx,0,8,1E,00,2F,41,D0,A4,02,00,
5249967,000000E0,false,Rx,0,8,00,00,00,0C,2E,00,00,E5,
5254758,0000002C,false,Rx,0,8,1E,00,2F,41,E0,1E,02,00,
5259970,000000E0,false,Rx,0,8,00,00,00,0C,2F,00,00,F8,
5264761,0000002C,false,Rx,0,8,1E,00,2F,41,F0,83,02,00,
5269962,000000E0,false,Rx,0,8,00,00,00,0C,20,00,00,43,
5274752,0000002C,false,Rx,0,8,1E,00,2F,41,00,FB,02,00,
5279964,000000E0,false,Rx,0,8,00,00,00,0C,21,00,00,5E,
5284745,0000002C,false,Rx,0,8,1E,00,2F,41,10,76,02,00,
5289956,000000E0,false,Rx,0,8,00,00,00,0C,22,00,00,79,
5294748,0000002C,false,Rx,0,8,1E,00,2F,41,20,CC,02,00,
5299959,000000E0,false,Rx,0,8,00,00,00,0C,23,00,00,64,
5304751,0000002C,false,Rx,0,8,1E,00,2F,41,30,51,02,00,
5309962,000000E0,false,Rx,0,8,00,00,00,0C,24,00,00,37,
5314753,0000002C,false,Rx,0,8,1E,00,2F,41,40,A5,02,00,
5319964,000000E0,false,Rx,0,8,00,00,00,0C,25,00,00,2A,
5324746,0000002C,false,Rx,0,8,1E,00,2F,41,50,38,02,00,
5329957,000000E0,false,Rx,0,8,00,00,00,0C,26,00,00,0D,
5334749,0000002C,false,Rx,0,8,1E,00,2F,41,60,82,02,00,
5339951,000000E0,false,Rx,0,8,00,00,00,0C,27,00,00,10,
5344743,0000002C,false,Rx,0,8,1E,00,2F,41,70,1F,02,00,
5349945,000000E0,false,Rx,0,8,00,00,00,0C,28,00,00,AB,
5354736,0000002C,false,Rx,0,8,1E,00,2F,41,80,77,02,00,
5359947,000000E0,false,Rx,0,8,00,00,00,0C,29,00,00,B6,
5364739,0000002C,false,Rx,0,8,1E,00,2F,41,90,EA,02,00,
5369950,000000E0,false,Rx,0,8,00,00,00,0C,2A,00,00,91,
5374743,0000002C,false,Rx,0,8,1E,00,2F,41,A0,50,02,00,
5379945,000000E0,false,Rx,0,8,00,00,00,0C,2B,00,00,8C,
5384736,0000002C,false,Rx,0,8,1E,00,2F,41,B0,CD,02,00,
5389949,000000E0,false,Rx,0,8,00,00,00,0C,2C,00,00,DF,
5394741,0000002C,false,Rx,0,8,1E,00,2F,41,C0,39,02,00,
5399941,000000E0,false,Rx,0,8,00,00,00,0C,2D,00,00,C2,
5404726,0000002C,false,Rx,0,8,1E,00,2F,41,D0,A4,02,00,
5409946,000000E0,false,Rx,0,8,00,00,00,0C,2E,00,00,E5,
5414730,0000002C,false,Rx,0,8,1E,00,2F,41,E0,1E,02,00,
5419950,000000E0,false,Rx,0,8,00,00,00,0C,2F,00,00,F8,
5424736,0000002C,false,Rx,0,8,1E,00,2F,41,F0,83,02,00,
5429937,000000E0,false,Rx,0,8,00,00,00,0C,20,00,00,43,
5434730,0000002C,false,Rx,0,8,1E,00,2F,41,00,FB,02,00,
5439940,000000E0,false,Rx,0,8,00,00,00,0C,21,00,00,5E,
5444722,0000002C,false,Rx,0,8,1E,00,2F,41,10,76,02,00,
5449935,000000E0,false,Rx,0,8,00,00,00,0C,22,00,00,79,
5454727,0000002C,false,Rx,0,8,1E,00,2F,41,20,CC,02,00,
5459937,000000E0,false,Rx,0,8,00,00,00,0C,23,00,00,64,
5464719,0000002C,false,Rx,0,8,1E,00,2F,41,30,51,02,00,
5469939,000000E0,false,Rx,0,8,00,00,00,0C,24,00,00,37,
5474731,0000002C,false,Rx,0,8,1E,00,2F,41,40,A5,02,00,
5479931,000000E0,false,Rx,0,8,00,00,00,0C,25,00,00,2A,
5484723,0000002C,false,Rx,0,8,1E,00,2F,41,50,38,02,00,
5489935,000000E0,false,Rx,0,8,00,00,00,0C,26,00,00,0D,
5494728,0000002C,false,Rx,0,8,1E,00,2F,41,60,82,02,00,
5499929,000000E0,false,Rx,0,8,00,00,00,0C,27,00,00,10,
5504711,0000002C,false,Rx,0,8,1E,00,2F,41,70,1F,02,00,
5509932,000000E0,false,Rx,0,8,00,00,00,0C,28,00,00,AB,
5514713,0000002C,false,Rx,0,8,1E,00,2F,41,80,77,02,00,
5519925,000000E0,false,Rx,0,8,00,00,00,0C,29,00,00,B6,
5524716,0000002C,false,Rx,0,8,1E,00,2F,41,90,EA,02,00,
5529936,000000E0,false,Rx,0,8,00,00,00,0C,2A,00,00,91,
5534719,0000002C,false,Rx,0,8,1E,00,2F,41,A0,50,02,00,
5539930,000000E0,false,Rx,0,8,00,00,00,0C,2B,00,00,8C,
5544711,0000002C,false,Rx,0,8,1E,00,2F,41,B0,CD,02,00,
5549932,000000E0,false,Rx,0,8,00,00,00,0C,2C,00,00,DF,
5554714,0000002C,false,Rx,0,8,1E,00,2F,41,C0,39,02,00,
5559925,000000E0,false,Rx,0,8,00,00,00,0C,2D,00,00,C2,
5564706,0000002C,false,Rx,0,8,1E,00,2F,41,D0,A4,02,00,
5569917,000000E0,false,Rx,0,8,00,00,00,0C,2E,00,00,E5,
5574709,0000002C,false,Rx,0,8,1E,00,2F,41,E0,1E,02,00,
5579920,000000E0,false,Rx,0,8,00,00,00,0C,2F,00,00,F8,
5584711,0000002C,false,Rx,0,8,1E,00,2F,41,F0,83,02,00,
5589912,000000E0,false,Rx,0,8,00,00,00,0C,20,00,00,43,
5594704,0000002C,false,Rx,0,8,1E,00,2F,41,00,FB,02,00,
5599915,000000E0,false,Rx,0,8,00,00,00,0C,21,00,00,5E,
5604706,0000002C,false,Rx,0,8,1E,00,2F,41,10,76,02,00,
5609907,000000E0,false,Rx,0,8,00,00,00,0C,22,00,00,79,
5614699,0000002C,false,Rx,0,8,1E,00,2F,41,20,CC,02,00,
5619910,000000E0,false,Rx,0,8,00,00,00,0C,23,00,00,64,
5624701,0000002C,false,Rx,0,8,1E,00,2F,41,30,51,02,00,
5629912,000000E0,false,Rx,0,8,00,00,00,0C,24,00,00,37,
5634704,0000002C,false,Rx,0,8,1E,00,2F,41,40,A5,02,00,
5639915,000000E0,false,Rx,0,8,00,00,00,0C,25,00,00,2A,
5644696,0000002C,false,Rx,0,8,1E,00,2F,41,50,38,02,00,
5649907,000000E0,false,Rx,0,8,00,00,00,0C,26,00,00,0D,
5654699,0000002C,false,Rx,0,8,1E,00,2F,41,60,82,02,00,
5659901,000000E0,false,Rx,0,8,00,00,00,0C,27,00,00,10,
5664691,0000002C,false,Rx,0,8,1E,00,2F,41,70,1F,02,00,
5669902,000000E0,false,Rx,0,8,00,00,00,0C,28,00,00,AB,
5674693,0000002C,false,Rx,0,8,1E,00,2F,41,80,77,02,00,
5679906,000000E0,false,Rx,0,8,00,00,00,0C,29,00,00,B6,
5684687,0000002C,false,Rx,0,8,1E,00,2F,41,90,EA,02,00,
5689898,000000E0,false,Rx,0,8,00,00,00,0C,2A,00,00,91,
5694689,0000002C,false,Rx,0,8,1E,00,2F,41,A0,50,02,00,
5699900,000000E0,false,Rx,0,8,00,00,00,0C,2B,00,00,8C,
5704691,0000002C,false,Rx,0,8,1E,00,2F,41,B0,CD,02,00,
5709902,000000E0,false,Rx,0,8,00,00,00,0C,2C,00,00,DF,
5714684,0000002C,false,Rx,0,8,1E,00,2F,41,C0,39,02,00,
5719896,000000E0,false,Rx,0,8,00,00,00,0C,2D,00,00,C2,
5724687,0000002C,false,Rx,0,8,1E,00,2F,41,D0,A4,02,00,
5729898,000000E0,false,Rx,0,8,00,00,00,0C,2E,00,00,E5,
5734679,0000002C,false,Rx,0,8,1E,00,2F,41,E0,1E,02,00,
5739900,000000E0,false,Rx,0,8,00,00,00,0C,2F,00,00,F8,
5744691,0000002C,false,Rx,0,8,1E,00,2F,41,F0,83,02,00,
5749892,000000E0,false,Rx,0,8,00,00,00,0C,20,00,00,43,
5754685,0000002C,false,Rx,0,8,1E,00,2F,41,00,FB,02,00,
5759895,000000E0,false,Rx,0,8,00,00,00,0C,31,00,00,93,
5764686,0000002C,false,Rx,0,8,1E,00,2F,44,1B,75,04,00,
5769887,000000E0,false,Rx,0,8,00,00,00,0C,32,00,00,B4,
5774679,0000002C,false,Rx,0,8,1E,00,2F,44,2B,CF,04,00,
5779890,000000E0,false,Rx,0,8,00,00,00,0C,33,00,00,A9,
5784671,0000002C,false,Rx,0,8,1E,00,2F,44,3B,52,04,00,
5789892,000000E0,false,Rx,0,8,00,00,00,0C,34,00,00,FA,
5794674,0000002C,false,Rx,0,8,1E,00,2F,44,4B,A6,04,00,
5799895,000000E0,false,Rx,0,8,00,00,00,0C,35,00,00,E7,
5804676,0000002C,false,Rx,0,8,1E,00,2F,44,5B,3B,04,00,
5809887,000000E0,false,Rx,0,8,00,00,00,0C,36,00,00,C0,
5814670,0000002C,false,Rx,0,8,1E,00,2F,44,6B,81,04,00,
5819881,000000E0,false,Rx,0,8,00,00,00,0C,37,00,00,DD,
5824661,0000002C,false,Rx,0,8,1E,00,2F,44,7B,1C,04,00,
5829882,000000E0,false,Rx,0,8,00,00,00,0C,38,00,00,66,
5834664,0000002C,false,Rx,0,8,1E,00,2F,44,8B,74,04,00,
5839875,000000E0,false,Rx,0,8,00,00,00,0C,39,00,00,7B,
5844666,0000002C,false,Rx,0,8,1E,00,2F,44,9B,E9,04,00,
5849877,000000E0,false,Rx,0,8,00,00,00,0C,3A,00,00,5C,
5854658,0000002C,false,Rx,0,8,1E,00,2F,44,AB,53,04,00,
5859880,000000E0,false,Rx,0,8,00,00,00,0C,3B,00,00,41,
5864661,0000002C,false,Rx,0,8,1E,00,2F,44,BB,CE,04,00,
5869882,000000E0,false,Rx,0,8,00,00,00,0C,3C,00,00,12,
5874663,0000002C,false,Rx,0,8,1E,00,2F,44,CB,3A,04,00,
5879875,000000E0,false,Rx,0,8,00,00,00,0C,3D,00,00,0F,
5884666,0000002C,false,Rx,0,8,1E,00,2F,44,DB,A7,04,00,
5889880,000000E0,false,Rx,0,8,00,00,00,0C,3E,00,00,28,
5894661,0000002C,false,Rx,0,8,1E,00,2F,44,EB,1D,04,00,
5899872,000000E0,false,Rx,0,8,00,00,00,0C,3F,00,00,35,
5904664,0000002C,false,Rx,0,8,1E,00,2F,44,FB,80,04,00,
5909876,000000E0,false,Rx,0,8,00,00,00,0C,30,00,00,8E,
5914668,0000002C,false,Rx,0,8,1E,00,2F,44,0B,E8,04,00,
5919869,000000E0,false,Rx,0,8,00,00,00,0C,31,00,00,93,
5924654,0000002C,false,Rx,0,8,1E,00,2F,44,1B,75,04,00,
5929864,000000E0,false,Rx,0,8,00,00,00,0C,32,00,00,B4,
5934656,0000002C,false,Rx,0,8,1E,00,2F,44,2B,CF,04,00,
5939865,000000E0,false,Rx,0,8,00,00,00,0C,33,00,00,A9,
5944647,0000002C,false,Rx,0,8,1E,00,2F,44,3B,52,04,00,
5949867,000000E0,false,Rx,0,8,00,00,00,0C,34,00,00,FA,
5954649,0000002C,false,Rx,0,8,1E,00,2F,44,4B,A6,04,00,
5959859,000000E0,false,Rx,0,8,00,00,00,0C,35,00,00,E7,
5964642,0000002C,false,Rx,0,8,1E,00,2F,44,5B,3B,04,00,
5969862,000000E0,false,Rx,0,8,00,00,00,0C,36,00,00,C0,
5974644,0000002C,false,Rx,0,8,1E,00,2F,44,6B,81,04,00,
5979854,000000E0,false,Rx,0,8,00,00,00,0C,37,00,00,DD,
5984646,0000002C,false,Rx,0,8,1E,00,2F,44,7B,1C,04,00,
5989865,000000E0,false,Rx,0,8,00,00,00,0C,38,00,00,66,
5994647,0000002C,false,Rx,0,8,1E,00,2F,44,8B,74,04,00,
5999857,000000E0,false,Rx,0,8,00,00,00,0C,39,00,00,7B,
6004639,0000002C,false,Rx,0,8,1E,00,2F,44,9B,E9,04,00,
6009850,000000E0,false,Rx,0,8,00,00,00,0C,3A,00,00,5C,
6014643,0000002C,false,Rx,0,8,1E,00,2F,44,AB,53,04,00,
6019863,000000E0,false,Rx,0,8,00,00,00,0C,3B,00,00,41,
6024646,0000002C,false,Rx,0,8,1E,00,2F,44,BB,CE,04,00,
6029856,000000E0,false,Rx,0,8,00,00,00,0C,3C,00,00,12,
6034648,0000002C,false,Rx,0,8,1E,00,2F,44,CB,3A,04,00,
6039859,000000E0,false,Rx,0,8,00,00,00,0C,3D,00,00,0F,
6044640,0000002C,false,Rx,0,8,1E,00,2F,44,DB,A7,04,00,
6049851,000000E0,false,Rx,0,8,00,00,00,0C,3E,00,00,28,
6054641,0000002C,false,Rx,0,8,1E,00,2F,44,EB,1D,04,00,
6059853,000000E0,false,Rx,0,8,00,00,00,0C,3F,00,00,35,
6064634,0000002C,false,Rx,0,8,1E,00,2F,44,FB,80,04,00,
6069856,000000E0,false,Rx,0,8,00,00,00,0C,30,00,00,8E,
6074637,0000002C,false,Rx,0,8,1E,00,2F,44,0B,E8,04,00,
6079848,000000E0,false,Rx,0,8,00,00,00,0C,31,00,00,93,
6084629,0000002C,false,Rx,0,8,1E,00,2F,44,1B,75,04,00,
6089841,000000E0,false,Rx,0,8,00,00,00,0C,32,00,00,B4,
6094631,0000002C,false,Rx,0,8,1E,00,2F,44,2B,CF,04,00,
6099843,000000E0,false,Rx,0,8,00,00,00,0C,33,00,00,A9,
6104624,0000002C,false,Rx,0,8,1E,00,2F,44,3B,52,04,00,
6109836,000000E0,false,Rx,0,8,00,00,00,0C,34,00,00,FA,
6114627,0000002C,false,Rx,0,8,1E,00,2F,44,4B,A6,04,00,
6119838,000000E0,false,Rx,0,8,00,00,00,0C,35,00,00,E7,
6124619,0000002C,false,Rx,0,8,1E,00,2F,44,5B,3B,04,00,
6129841,000000E0,false,Rx,0,8,00,00,00,0C,36,00,00,C0,
6134621,0000002C,false,Rx,0,8,1E,00,2F,44,6B,81,04,00,
6139833,000000E0,false,Rx,0,8,00,00,00,0C,37,00,00,DD,
6144614,0000002C,false,Rx,0,8,1E,00,2F,44,7B,1C,04,00,
6149836,000000E0,false,Rx,0,8,00,00,00,0C,38,00,00,66,
6154617,0000002C,false,Rx,0,8,1E,00,2F,44,8B,74,04,00,
6159828,000000E0,false,Rx,0,8,00,00,00,0C,39,00,00,7B,
6164619,0000002C,false,Rx,0,8,1E,00,2F,44,9B,E9,04,00,
6169831,000000E0,false,Rx,0,8,00,00,00,0C,3A,00,00,5C,
6174614,0000002C,false,Rx,0,8,1E,00,2F,44,AB,53,04,00,
6179836,000000E0,false,Rx,0,8,00,00,00,0C,3B,00,00,41,
6184620,0000002C,false,Rx,0,8,1E,00,2F,44,BB,CE,04,00,
6189831,000000E0,false,Rx,0,8,00,00,00,0C,3C,00,00,12,
6194621,0000002C,false,Rx,0,8,1E,00,2F,44,CB,3A,04,00,
6199833,000000E0,false,Rx,0,8,00,00,00,0C,3D,00,00,0F,
6204614,0000002C,false,Rx,0,8,1E,00,2F,44,DB,A7,04,00,
6209835,000000E0,false,Rx,0,8,00,00,00,0C,3E,00,00,28,
6214616,0000002C,false,Rx,0,8,1E,00,2F,44,EB,1D,04,00,
6219827,000000E0,false,Rx,0,8,00,00,00,0C,3F,00,00,35,
6224619,0000002C,false,Rx,0,8,1E,00,2F,44,FB,80,04,00,
6229830,000000E0,false,Rx,0,8,00,00,00,0C,30,00,00,8E,
6234621,0000002C,false,Rx,0,8,1E,00,2F,44,0B,E8,04,00,
6239822,000000E0,false,Rx,0,8,00,00,00,0C,31,00,00,93,
6244613,0000002C,false,Rx,0,8,1E,00,2F,44,1B,75,04,00,
6249825,000000E0,false,Rx,0,8,00,00,00,0C,32,00,00,B4,
6254606,0000002C,false,Rx,0,8,1E,00,2F,44,2B,CF,04,00,
6259817,000000E0,false,Rx,0,8,00,00,00,0C,33,00,00,A9,
6264599,0000002C,false,Rx,0,8,1E,00,2F,44,3B,52,04,00,
6269820,000000E0,false,Rx,0,8,00,00,00,0C,34,00,00,FA,
6274601,0000002C,false,Rx,0,8,1E,00,2F,44,4B,A6,04,00,
6279812,000000E0,false,Rx,0,8,00,00,00,0C,35,00,00,E7,
6284603,0000002C,false,Rx,0,8,1E,00,2F,44,5B,3B,04,00,
6289815,000000E0,false,Rx,0,8,00,00,00,0C,36,00,00,C0,
6294606,0000002C,false,Rx,0,8,1E,00,2F,44,6B,81,04,00,
6299807,000000E0,false,Rx,0,8,00,00,00,0C,37,00,00,DD,
6304598,0000002C,false,Rx,0,8,1E,00,2F,44,7B,1C,04,00,
6309810,000000E0,false,Rx,0,8,00,00,00,0C,38,00,00,66,
6314591,0000002C,false,Rx,0,8,1E,00,2F,44,8B,74,04,00,
6319812,000000E0,false,Rx,0,8,00,00,00,0C,39,00,00,7B,
6324594,0000002C,false,Rx,0,8,1E,00,2F,44,9B,E9,04,00,
6329805,000000E0,false,Rx,0,8,00,00,00,0C,3A,00,00,5C,
6334586,0000002C,false,Rx,0,8,1E,00,2F,44,AB,53,04,00,
6339817,000000E0,false,Rx,0,8,00,00,00,0C,3B,00,00,41,
6344598,0000002C,false,Rx,0,8,1E,00,2F,44,BB,CE,04,00,
6349810,000000E0,false,Rx,0,8,00,00,00,0C,3C,00,00,12,
6354591,0000002C,false,Rx,0,8,1E,00,2F,44,CB,3A,04,00,
6359803,000000E0,false,Rx,0,8,00,00,00,0C,3D,00,00,0F,
6364594,0000002C,false,Rx,0,8,1E,00,2F,44,DB,A7,04,00,
6369805,000000E0,false,Rx,0,8,00,00,00,0C,3E,00,00,28,
6374596,0000002C,false,Rx,0,8,1E,00,2F,44,EB,1D,04,00,
6379797,000000E0,false,Rx,0,8,00,00,00,0C,3F,00,00,35,
6384589,0000002C,false,Rx,0,8,1E,00,2F,44,FB,80,04,00,
6389800,000000E0,false,Rx,0,8,00,00,00,0C,30,00,00,8E,
6394591,0000002C,false,Rx,0,8,1E,00,2F,44,0B,E8,04,00,
6399803,000000E0,false,Rx,0,8,00,00,00,0C,31,00,00,93,
6404585,0000002C,false,Rx,0,8,1E,00,2F,44,1B,75,04,00,
6409796,000000E0,false,Rx,0,8,00,00,00,0C,32,00,00,B4,
6414577,0000002C,false,Rx,0,8,1E,00,2F,44,2B,CF,04,00,
6419788,000000E0,false,Rx,0,8,00,00,00,0C,33,00,00,A9,
6424581,0000002C,false,Rx,0,8,1E,00,2F,44,3B,52,04,00,
6429792,000000E0,false,Rx,0,8,00,00,00,0C,34,00,00,FA,
6434583,0000002C,false,Rx,0,8,1E,00,2F,44,4B,A6,04,00,
6439795,000000E0,false,Rx,0,8,00,00,00,0C,35,00,00,E7,
6444576,0000002C,false,Rx,0,8,1E,00,2F,44,5B,3B,04,00,
6449797,000000E0,false,Rx,0,8,00,00,00,0C,36,00,00,C0,
6454581,0000002C,false,Rx,0,8,1E,00,2F,44,6B,81,04,00,
6459791,000000E0,false,Rx,0,8,00,00,00,0C,37,00,00,DD,
6464576,0000002C,false,Rx,0,8,1E,00,2F,44,7B,1C,04,00,
6469786,000000E0,false,Rx,0,8,00,00,00,0C,38,00,00,66,
6474578,0000002C,false,Rx,0,8,1E,00,2F,44,8B,74,04,00,
6479788,000000E0,false,Rx,0,8,00,00,00,0C,39,00,00,7B,
6484570,0000002C,false,Rx,0,8,1E,00,2F,44,9B,E9,04,00,
6489790,000000E0,false,Rx,0,8,00,00,00,0C,3A,00,00,5C,
6494572,0000002C,false,Rx,0,8,1E,00,2F,44,AB,53,04,00,
6499792,000000E0,false,Rx,0,8,00,00,00,0C,3B,00,00,41,
6504575,0000002C,false,Rx,0,8,1E,00,2F,44,BB,CE,04,00,
6509785,000000E0,false,Rx,0,8,00,00,00,0C,3C,00,00,12,
6514567,0000002C,false,Rx,0,8,1E,00,2F,44,CB,3A,04,00,
6519787,000000E0,false,Rx,0,8,00,00,00,0C,3D,00,00,0F,
6524570,0000002C,false,Rx,0,8,1E,00,2F,44,DB,A7,04,00,
6529780,000000E0,false,Rx,0,8,00,00,00,0C,3E,00,00,28,
6534572,0000002C,false,Rx,0,8,1E,00,2F,44,EB,1D,04,00,
6539782,000000E0,false,Rx,0,8,00,00,00,0C,3F,00,00,35,
6544565,0000002C,false,Rx,0,8,1E,00,2F,44,FB,80,04,00,
6549775,000000E0,false,Rx,0,8,00,00,00,0C,30,00,00,8E,
6554567,0000002C,false,Rx,0,8,1E,00,2F,44,0B,E8,04,00,
6559777,000000E0,false,Rx,0,8,00,00,00,0C,31,00,00,93,
6564561,0000002C,false,Rx,0,8,1E,00,2F,44,1B,75,04,00,
6569772,000000E0,false,Rx,0,8,00,00,00,0C,32,00,00,B4,
6574553,0000002C,false,Rx,0,8,1E,00,2F,44,2B,CF,04,00,
6579774,000000E0,false,Rx,0,8,00,00,00,0C,33,00,00,A9,
6584556,0000002C,false,Rx,0,8,1E,00,2F,44,3B,52,04,00,
6589767,000000E0,false,Rx,0,8,00,00,00,0C,34,00,00,FA,
6594559,0000002C,false,Rx,0,8,1E,00,2F,44,4B,A6,04,00,
6599771,000000E0,false,Rx,0,8,00,00,00,0C,35,00,00,E7,
6604551,0000002C,false,Rx,0,8,1E,00,2F,44,5B,3B,04,00,
6609772,000000E0,false,Rx,0,8,00,00,00,0C,36,00,00,C0,
6614554,0000002C,false,Rx,0,8,1E,00,2F,44,6B,81,04,00,
6619767,000000E0,false,Rx,0,8,00,00,00,0C,37,00,00,DD,
6624547,0000002C,false,Rx,0,8,1E,00,2F,44,7B,1C,04,00,
6629768,000000E0,false,Rx,0,8,00,00,00,0C,38,00,00,66,
6634549,0000002C,false,Rx,0,8,1E,00,2F,44,8B,74,04,00,
6639760,000000E0,false,Rx,0,8,00,00,00,0C,39,00,00,7B,
